frequency,V(onoise),V(rs)
1.000000000000000e+000,2.015652e-006,1.968545e-006
1.023292992280754e+000,2.015462e-006,1.968545e-006
1.047128548050899e+000,2.015276e-006,1.968545e-006
1.071519305237606e+000,2.015094e-006,1.968545e-006
1.096478196143185e+000,2.014916e-006,1.968545e-006
1.122018454301963e+000,2.014743e-006,1.968545e-006
1.148153621496882e+000,2.014573e-006,1.968545e-006
1.174897554939529e+000,2.014407e-006,1.968545e-006
1.202264434617413e+000,2.014245e-006,1.968545e-006
1.230268770812381e+000,2.014086e-006,1.968545e-006
1.258925411794167e+000,2.013932e-006,1.968545e-006
1.288249551693134e+000,2.013780e-006,1.968545e-006
1.318256738556407e+000,2.013632e-006,1.968545e-006
1.348962882591653e+000,2.013488e-006,1.968545e-006
1.380384264602885e+000,2.013347e-006,1.968545e-006
1.412537544622754e+000,2.013209e-006,1.968545e-006
1.445439770745927e+000,2.013074e-006,1.968545e-006
1.479108388168207e+000,2.012942e-006,1.968545e-006
1.513561248436208e+000,2.012813e-006,1.968545e-006
1.548816618912481e+000,2.012687e-006,1.968545e-006
1.584893192461113e+000,2.012564e-006,1.968545e-006
1.621810097358929e+000,2.012443e-006,1.968545e-006
1.659586907437560e+000,2.012326e-006,1.968545e-006
1.698243652461744e+000,2.012211e-006,1.968545e-006
1.737800828749375e+000,2.012099e-006,1.968545e-006
1.778279410038922e+000,2.011989e-006,1.968545e-006
1.819700858609982e+000,2.011882e-006,1.968545e-006
1.862087136662866e+000,2.011777e-006,1.968545e-006
1.905460717963246e+000,2.011674e-006,1.968545e-006
1.949844599758044e+000,2.011574e-006,1.968545e-006
1.995262314968878e+000,2.011477e-006,1.968545e-006
2.041737944669527e+000,2.011381e-006,1.968545e-006
2.089296130854037e+000,2.011288e-006,1.968545e-006
2.137962089502230e+000,2.011196e-006,1.968545e-006
2.187761623949550e+000,2.011107e-006,1.968545e-006
2.238721138568337e+000,2.011020e-006,1.968545e-006
2.290867652767771e+000,2.010934e-006,1.968545e-006
2.344228815319919e+000,2.010851e-006,1.968545e-006
2.398832919019488e+000,2.010770e-006,1.968545e-006
2.454708915685028e+000,2.010690e-006,1.968545e-006
2.511886431509577e+000,2.010612e-006,1.968545e-006
2.570395782768860e+000,2.010536e-006,1.968545e-006
2.630267991895378e+000,2.010462e-006,1.968545e-006
2.691534803926912e+000,2.010390e-006,1.968545e-006
2.754228703338163e+000,2.010319e-006,1.968545e-006
2.818382931264450e+000,2.010249e-006,1.968545e-006
2.884031503126602e+000,2.010182e-006,1.968545e-006
2.951209226666381e+000,2.010115e-006,1.968545e-006
3.019951720402012e+000,2.010051e-006,1.968545e-006
3.090295432513586e+000,2.009987e-006,1.968545e-006
3.162277660168374e+000,2.009926e-006,1.968545e-006
3.235936569296277e+000,2.009865e-006,1.968544e-006
3.311311214825905e+000,2.009806e-006,1.968544e-006
3.388441561392020e+000,2.009748e-006,1.968544e-006
3.467368504525310e+000,2.009692e-006,1.968544e-006
3.548133892335748e+000,2.009637e-006,1.968544e-006
3.630780547701007e+000,2.009583e-006,1.968544e-006
3.715352290971719e+000,2.009530e-006,1.968544e-006
3.801893963205605e+000,2.009479e-006,1.968544e-006
3.890451449942799e+000,2.009429e-006,1.968544e-006
3.981071705534965e+000,2.009380e-006,1.968544e-006
4.073802778041119e+000,2.009331e-006,1.968544e-006
4.168693834703346e+000,2.009285e-006,1.968544e-006
4.265795188015918e+000,2.009239e-006,1.968544e-006
4.365158322401651e+000,2.009194e-006,1.968544e-006
4.466835921509622e+000,2.009150e-006,1.968544e-006
4.570881896148741e+000,2.009107e-006,1.968544e-006
4.677351412871972e+000,2.009065e-006,1.968544e-006
4.786300923226373e+000,2.009024e-006,1.968544e-006
4.897788193684452e+000,2.008984e-006,1.968543e-006
5.011872336272712e+000,2.008945e-006,1.968543e-006
5.128613839913638e+000,2.008907e-006,1.968543e-006
5.248074602497715e+000,2.008870e-006,1.968543e-006
5.370317963702516e+000,2.008833e-006,1.968543e-006
5.495408738576233e+000,2.008798e-006,1.968543e-006
5.623413251903478e+000,2.008763e-006,1.968543e-006
5.754399373371556e+000,2.008728e-006,1.968543e-006
5.888436553555876e+000,2.008695e-006,1.968542e-006
6.025595860743564e+000,2.008663e-006,1.968542e-006
6.165950018614807e+000,2.008631e-006,1.968542e-006
6.309573444801917e+000,2.008600e-006,1.968542e-006
6.456542290346540e+000,2.008569e-006,1.968542e-006
6.606934480075944e+000,2.008539e-006,1.968541e-006
6.760829753919802e+000,2.008510e-006,1.968541e-006
6.918309709189348e+000,2.008482e-006,1.968541e-006
7.079457843841362e+000,2.008454e-006,1.968541e-006
7.244359600749883e+000,2.008427e-006,1.968541e-006
7.413102413009157e+000,2.008400e-006,1.968541e-006
7.585775750291819e+000,2.008374e-006,1.968540e-006
7.762471166286898e+000,2.008349e-006,1.968540e-006
7.943282347242795e+000,2.008324e-006,1.968540e-006
8.128305161640972e+000,2.008300e-006,1.968540e-006
8.317637711026690e+000,2.008276e-006,1.968539e-006
8.511380382023743e+000,2.008253e-006,1.968539e-006
8.709635899560784e+000,2.008230e-006,1.968539e-006
8.912509381337431e+000,2.008208e-006,1.968539e-006
9.120108393559072e+000,2.008186e-006,1.968538e-006
9.332543007969884e+000,2.008165e-006,1.968538e-006
9.549925860214332e+000,2.008144e-006,1.968537e-006
9.772372209558078e+000,2.008123e-006,1.968537e-006
9.999999999999970e+000,2.008103e-006,1.968537e-006
1.023292992280751e+001,2.008084e-006,1.968536e-006
1.047128548050896e+001,2.008065e-006,1.968536e-006
1.071519305237603e+001,2.008046e-006,1.968535e-006
1.096478196143182e+001,2.008028e-006,1.968535e-006
1.122018454301960e+001,2.008010e-006,1.968534e-006
1.148153621496879e+001,2.007992e-006,1.968534e-006
1.174897554939526e+001,2.007975e-006,1.968533e-006
1.202264434617409e+001,2.007958e-006,1.968533e-006
1.230268770812378e+001,2.007941e-006,1.968532e-006
1.258925411794163e+001,2.007925e-006,1.968531e-006
1.288249551693130e+001,2.007910e-006,1.968531e-006
1.318256738556403e+001,2.007894e-006,1.968530e-006
1.348962882591649e+001,2.007879e-006,1.968529e-006
1.380384264602880e+001,2.007864e-006,1.968529e-006
1.412537544622749e+001,2.007849e-006,1.968528e-006
1.445439770745922e+001,2.007835e-006,1.968527e-006
1.479108388168202e+001,2.007821e-006,1.968526e-006
1.513561248436203e+001,2.007807e-006,1.968525e-006
1.548816618912476e+001,2.007793e-006,1.968524e-006
1.584893192461108e+001,2.007780e-006,1.968523e-006
1.621810097358924e+001,2.007767e-006,1.968522e-006
1.659586907437554e+001,2.007754e-006,1.968521e-006
1.698243652461738e+001,2.007741e-006,1.968520e-006
1.737800828749369e+001,2.007729e-006,1.968519e-006
1.778279410038916e+001,2.007716e-006,1.968517e-006
1.819700858609976e+001,2.007704e-006,1.968516e-006
1.862087136662860e+001,2.007693e-006,1.968515e-006
1.905460717963240e+001,2.007681e-006,1.968513e-006
1.949844599758038e+001,2.007669e-006,1.968512e-006
1.995262314968872e+001,2.007658e-006,1.968510e-006
2.041737944669522e+001,2.007646e-006,1.968509e-006
2.089296130854032e+001,2.007635e-006,1.968507e-006
2.137962089502224e+001,2.007624e-006,1.968505e-006
2.187761623949544e+001,2.007613e-006,1.968503e-006
2.238721138568331e+001,2.007603e-006,1.968501e-006
2.290867652767764e+001,2.007592e-006,1.968499e-006
2.344228815319913e+001,2.007581e-006,1.968497e-006
2.398832919019481e+001,2.007571e-006,1.968495e-006
2.454708915685020e+001,2.007560e-006,1.968492e-006
2.511886431509570e+001,2.007550e-006,1.968490e-006
2.570395782768853e+001,2.007540e-006,1.968487e-006
2.630267991895371e+001,2.007530e-006,1.968484e-006
2.691534803926904e+001,2.007519e-006,1.968481e-006
2.754228703338155e+001,2.007509e-006,1.968478e-006
2.818382931264442e+001,2.007499e-006,1.968475e-006
2.884031503126593e+001,2.007489e-006,1.968472e-006
2.951209226666373e+001,2.007479e-006,1.968468e-006
3.019951720402003e+001,2.007469e-006,1.968465e-006
3.090295432513577e+001,2.007458e-006,1.968461e-006
3.162277660168365e+001,2.007448e-006,1.968457e-006
3.235936569296268e+001,2.007438e-006,1.968453e-006
3.311311214825896e+001,2.007427e-006,1.968448e-006
3.388441561392011e+001,2.007417e-006,1.968444e-006
3.467368504525301e+001,2.007406e-006,1.968439e-006
3.548133892335738e+001,2.007396e-006,1.968434e-006
3.630780547700997e+001,2.007385e-006,1.968429e-006
3.715352290971708e+001,2.007374e-006,1.968423e-006
3.801893963205595e+001,2.007363e-006,1.968418e-006
3.890451449942788e+001,2.007352e-006,1.968412e-006
3.981071705534954e+001,2.007341e-006,1.968405e-006
4.073802778041109e+001,2.007329e-006,1.968399e-006
4.168693834703335e+001,2.007318e-006,1.968392e-006
4.265795188015907e+001,2.007306e-006,1.968385e-006
4.365158322401639e+001,2.007293e-006,1.968377e-006
4.466835921509610e+001,2.007281e-006,1.968369e-006
4.570881896148729e+001,2.007268e-006,1.968361e-006
4.677351412871960e+001,2.007255e-006,1.968352e-006
4.786300923226361e+001,2.007242e-006,1.968343e-006
4.897788193684438e+001,2.007228e-006,1.968333e-006
5.011872336272698e+001,2.007214e-006,1.968323e-006
5.128613839913624e+001,2.007199e-006,1.968313e-006
5.248074602497700e+001,2.007184e-006,1.968302e-006
5.370317963702501e+001,2.007169e-006,1.968290e-006
5.495408738576219e+001,2.007153e-006,1.968278e-006
5.623413251903463e+001,2.007137e-006,1.968266e-006
5.754399373371541e+001,2.007120e-006,1.968253e-006
5.888436553555861e+001,2.007103e-006,1.968239e-006
6.025595860743547e+001,2.007085e-006,1.968224e-006
6.165950018614791e+001,2.007066e-006,1.968209e-006
6.309573444801901e+001,2.007047e-006,1.968193e-006
6.456542290346522e+001,2.007027e-006,1.968177e-006
6.606934480075925e+001,2.007006e-006,1.968159e-006
6.760829753919782e+001,2.006985e-006,1.968141e-006
6.918309709189329e+001,2.006963e-006,1.968122e-006
7.079457843841342e+001,2.006939e-006,1.968102e-006
7.244359600749863e+001,2.006916e-006,1.968082e-006
7.413102413009136e+001,2.006891e-006,1.968060e-006
7.585775750291798e+001,2.006865e-006,1.968037e-006
7.762471166286876e+001,2.006838e-006,1.968013e-006
7.943282347242773e+001,2.006810e-006,1.967988e-006
8.128305161640949e+001,2.006781e-006,1.967961e-006
8.317637711026666e+001,2.006750e-006,1.967934e-006
8.511380382023719e+001,2.006718e-006,1.967905e-006
8.709635899560760e+001,2.006685e-006,1.967875e-006
8.912509381337408e+001,2.006651e-006,1.967843e-006
9.120108393559049e+001,2.006615e-006,1.967810e-006
9.332543007969861e+001,2.006578e-006,1.967775e-006
9.549925860214309e+001,2.006539e-006,1.967739e-006
9.772372209558054e+001,2.006498e-006,1.967701e-006
9.999999999999946e+001,2.006455e-006,1.967662e-006
1.023292992280749e+002,2.006411e-006,1.967620e-006
1.047128548050894e+002,2.006365e-006,1.967576e-006
1.071519305237600e+002,2.006316e-006,1.967531e-006
1.096478196143179e+002,2.006266e-006,1.967483e-006
1.122018454301957e+002,2.006213e-006,1.967433e-006
1.148153621496876e+002,2.006158e-006,1.967381e-006
1.174897554939523e+002,2.006100e-006,1.967326e-006
1.202264434617406e+002,2.006040e-006,1.967268e-006
1.230268770812374e+002,2.005977e-006,1.967208e-006
1.258925411794160e+002,2.005911e-006,1.967145e-006
1.288249551693126e+002,2.005843e-006,1.967079e-006
1.318256738556399e+002,2.005771e-006,1.967010e-006
1.348962882591646e+002,2.005696e-006,1.966938e-006
1.380384264602876e+002,2.005617e-006,1.966862e-006
1.412537544622746e+002,2.005535e-006,1.966783e-006
1.445439770745919e+002,2.005449e-006,1.966700e-006
1.479108388168199e+002,2.005359e-006,1.966613e-006
1.513561248436199e+002,2.005265e-006,1.966522e-006
1.548816618912472e+002,2.005167e-006,1.966427e-006
1.584893192461104e+002,2.005064e-006,1.966328e-006
1.621810097358920e+002,2.004957e-006,1.966223e-006
1.659586907437551e+002,2.004844e-006,1.966114e-006
1.698243652461734e+002,2.004726e-006,1.965999e-006
1.737800828749365e+002,2.004603e-006,1.965880e-006
1.778279410038912e+002,2.004474e-006,1.965754e-006
1.819700858609972e+002,2.004339e-006,1.965623e-006
1.862087136662856e+002,2.004198e-006,1.965486e-006
1.905460717963235e+002,2.004050e-006,1.965342e-006
1.949844599758033e+002,2.003896e-006,1.965191e-006
1.995262314968867e+002,2.003734e-006,1.965034e-006
2.041737944669516e+002,2.003565e-006,1.964869e-006
2.089296130854026e+002,2.003388e-006,1.964696e-006
2.137962089502218e+002,2.003202e-006,1.964515e-006
2.187761623949538e+002,2.003008e-006,1.964326e-006
2.238721138568325e+002,2.002805e-006,1.964127e-006
2.290867652767758e+002,2.002593e-006,1.963920e-006
2.344228815319906e+002,2.002371e-006,1.963703e-006
2.398832919019474e+002,2.002138e-006,1.963475e-006
2.454708915685014e+002,2.001894e-006,1.963238e-006
2.511886431509563e+002,2.001640e-006,1.962988e-006
2.570395782768846e+002,2.001373e-006,1.962728e-006
2.630267991895364e+002,2.001094e-006,1.962455e-006
2.691534803926897e+002,2.000802e-006,1.962169e-006
2.754228703338148e+002,2.000496e-006,1.961870e-006
2.818382931264435e+002,2.000177e-006,1.961557e-006
2.884031503126586e+002,1.999842e-006,1.961230e-006
2.951209226666366e+002,1.999492e-006,1.960887e-006
3.019951720401995e+002,1.999125e-006,1.960528e-006
3.090295432513569e+002,1.998742e-006,1.960153e-006
3.162277660168357e+002,1.998341e-006,1.959760e-006
3.235936569296260e+002,1.997921e-006,1.959349e-006
3.311311214825888e+002,1.997482e-006,1.958918e-006
3.388441561392002e+002,1.997022e-006,1.958468e-006
3.467368504525292e+002,1.996541e-006,1.957997e-006
3.548133892335729e+002,1.996038e-006,1.957504e-006
3.630780547700987e+002,1.995511e-006,1.956988e-006
3.715352290971698e+002,1.994960e-006,1.956449e-006
3.801893963205584e+002,1.994384e-006,1.955884e-006
3.890451449942777e+002,1.993781e-006,1.955293e-006
3.981071705534943e+002,1.993151e-006,1.954675e-006
4.073802778041097e+002,1.992491e-006,1.954029e-006
4.168693834703323e+002,1.991801e-006,1.953352e-006
4.265795188015895e+002,1.991079e-006,1.952645e-006
4.365158322401627e+002,1.990324e-006,1.951905e-006
4.466835921509598e+002,1.989535e-006,1.951131e-006
4.570881896148716e+002,1.988709e-006,1.950322e-006
4.677351412871947e+002,1.987846e-006,1.949476e-006
4.786300923226348e+002,1.986943e-006,1.948591e-006
4.897788193684425e+002,1.985999e-006,1.947665e-006
5.011872336272685e+002,1.985012e-006,1.946697e-006
5.128613839913610e+002,1.983979e-006,1.945685e-006
5.248074602497686e+002,1.982900e-006,1.944628e-006
5.370317963702487e+002,1.981772e-006,1.943522e-006
5.495408738576203e+002,1.980593e-006,1.942366e-006
5.623413251903447e+002,1.979361e-006,1.941158e-006
5.754399373371524e+002,1.978073e-006,1.939895e-006
5.888436553555844e+002,1.976727e-006,1.938575e-006
6.025595860743530e+002,1.975321e-006,1.937197e-006
6.165950018614773e+002,1.973852e-006,1.935756e-006
6.309573444801882e+002,1.972317e-006,1.934251e-006
6.456542290346504e+002,1.970713e-006,1.932679e-006
6.606934480075908e+002,1.969038e-006,1.931036e-006
6.760829753919763e+002,1.967289e-006,1.929321e-006
6.918309709189309e+002,1.965462e-006,1.927530e-006
7.079457843841321e+002,1.963555e-006,1.925659e-006
7.244359600749841e+002,1.961563e-006,1.923707e-006
7.413102413009113e+002,1.959485e-006,1.921668e-006
7.585775750291774e+002,1.957315e-006,1.919541e-006
7.762471166286852e+002,1.955051e-006,1.917321e-006
7.943282347242747e+002,1.952689e-006,1.915004e-006
8.128305161640923e+002,1.950224e-006,1.912588e-006
8.317637711026639e+002,1.947654e-006,1.910067e-006
8.511380382023692e+002,1.944973e-006,1.907438e-006
8.709635899560732e+002,1.942177e-006,1.904697e-006
8.912509381337379e+002,1.939263e-006,1.901839e-006
9.120108393559019e+002,1.936225e-006,1.898860e-006
9.332543007969830e+002,1.933060e-006,1.895756e-006
9.549925860214277e+002,1.929762e-006,1.892521e-006
9.772372209558022e+002,1.926326e-006,1.889152e-006
9.999999999999913e+002,1.922748e-006,1.885644e-006
1.023292992280745e+003,1.919023e-006,1.881991e-006
1.047128548050890e+003,1.915146e-006,1.878188e-006
1.071519305237597e+003,1.911111e-006,1.874231e-006
1.096478196143175e+003,1.906913e-006,1.870114e-006
1.122018454301953e+003,1.902546e-006,1.865832e-006
1.148153621496872e+003,1.898006e-006,1.861380e-006
1.174897554939519e+003,1.893286e-006,1.856751e-006
1.202264434617402e+003,1.888382e-006,1.851942e-006
1.230268770812370e+003,1.883287e-006,1.846945e-006
1.258925411794156e+003,1.877996e-006,1.841756e-006
1.288249551693122e+003,1.872503e-006,1.836370e-006
1.318256738556395e+003,1.866803e-006,1.830779e-006
1.348962882591641e+003,1.860889e-006,1.824980e-006
1.380384264602872e+003,1.854757e-006,1.818966e-006
1.412537544622741e+003,1.848400e-006,1.812732e-006
1.445439770745914e+003,1.841813e-006,1.806272e-006
1.479108388168193e+003,1.834990e-006,1.799581e-006
1.513561248436194e+003,1.827927e-006,1.792655e-006
1.548816618912467e+003,1.820618e-006,1.785486e-006
1.584893192461099e+003,1.813057e-006,1.778071e-006
1.621810097358915e+003,1.805240e-006,1.770405e-006
1.659586907437545e+003,1.797162e-006,1.762483e-006
1.698243652461728e+003,1.788818e-006,1.754301e-006
1.737800828749359e+003,1.780205e-006,1.745854e-006
1.778279410038906e+003,1.771318e-006,1.737138e-006
1.819700858609966e+003,1.762153e-006,1.728150e-006
1.862087136662849e+003,1.752707e-006,1.718887e-006
1.905460717963229e+003,1.742977e-006,1.709344e-006
1.949844599758026e+003,1.732960e-006,1.699521e-006
1.995262314968860e+003,1.722654e-006,1.689413e-006
2.041737944669509e+003,1.712057e-006,1.679021e-006
2.089296130854019e+003,1.701167e-006,1.668341e-006
2.137962089502211e+003,1.689984e-006,1.657374e-006
2.187761623949531e+003,1.678507e-006,1.646119e-006
2.238721138568317e+003,1.666736e-006,1.634575e-006
2.290867652767750e+003,1.654673e-006,1.622744e-006
2.344228815319898e+003,1.642317e-006,1.610627e-006
2.398832919019466e+003,1.629671e-006,1.598225e-006
2.454708915685005e+003,1.616737e-006,1.585541e-006
2.511886431509554e+003,1.603519e-006,1.572578e-006
2.570395782768837e+003,1.590019e-006,1.559338e-006
2.630267991895355e+003,1.576242e-006,1.545827e-006
2.691534803926887e+003,1.562193e-006,1.532049e-006
2.754228703338138e+003,1.547877e-006,1.518010e-006
2.818382931264424e+003,1.533301e-006,1.503714e-006
2.884031503126575e+003,1.518470e-006,1.489170e-006
2.951209226666354e+003,1.503393e-006,1.474383e-006
3.019951720401984e+003,1.488076e-006,1.459362e-006
3.090295432513557e+003,1.472529e-006,1.444115e-006
3.162277660168345e+003,1.456761e-006,1.428651e-006
3.235936569296248e+003,1.440781e-006,1.412979e-006
3.311311214825875e+003,1.424598e-006,1.397109e-006
3.388441561391989e+003,1.408224e-006,1.381051e-006
3.467368504525279e+003,1.391670e-006,1.364816e-006
3.548133892335716e+003,1.374946e-006,1.348415e-006
3.630780547700973e+003,1.358064e-006,1.331859e-006
3.715352290971684e+003,1.341037e-006,1.315160e-006
3.801893963205570e+003,1.323876e-006,1.298330e-006
3.890451449942763e+003,1.306594e-006,1.281382e-006
3.981071705534928e+003,1.289204e-006,1.264327e-006
4.073802778041082e+003,1.271719e-006,1.247179e-006
4.168693834703307e+003,1.254151e-006,1.229951e-006
4.265795188015879e+003,1.236514e-006,1.212654e-006
4.365158322401610e+003,1.218821e-006,1.195302e-006
4.466835921509581e+003,1.201084e-006,1.177907e-006
4.570881896148699e+003,1.183317e-006,1.160483e-006
4.677351412871929e+003,1.165533e-006,1.143042e-006
4.786300923226329e+003,1.147744e-006,1.125596e-006
4.897788193684407e+003,1.129963e-006,1.108158e-006
5.011872336272666e+003,1.112202e-006,1.090739e-006
5.128613839913590e+003,1.094473e-006,1.073352e-006
5.248074602497666e+003,1.076788e-006,1.056009e-006
5.370317963702466e+003,1.059159e-006,1.038720e-006
5.495408738576182e+003,1.041596e-006,1.021496e-006
5.623413251903426e+003,1.024111e-006,1.004348e-006
5.754399373371502e+003,1.006714e-006,9.872867e-007
5.888436553555821e+003,9.894153e-007,9.703214e-007
6.025595860743507e+003,9.722239e-007,9.534616e-007
6.165950018614749e+003,9.551494e-007,9.367164e-007
6.309573444801858e+003,9.382005e-007,9.200944e-007
6.456542290346478e+003,9.213855e-007,9.036038e-007
6.606934480075881e+003,9.047124e-007,8.872522e-007
6.760829753919737e+003,8.881885e-007,8.710470e-007
