Freq.	V(vout)
1.00000000000000e-002	(3.21965286511104e+001dB,1.79999828235766e+002°)
1.02329299228075e-002	(3.21965286511086e+001dB,1.79999824234864e+002°)
1.04712854805090e-002	(3.21965286511066e+001dB,1.79999820140768e+002°)
1.07151930523761e-002	(3.21965286511046e+001dB,1.79999815951308e+002°)
1.09647819614318e-002	(3.21965286511025e+001dB,1.79999811664263e+002°)
1.12201845430196e-002	(3.21965286511003e+001dB,1.79999807277360e+002°)
1.14815362149688e-002	(3.21965286510980e+001dB,1.79999802788273e+002°)
1.17489755493953e-002	(3.21965286510955e+001dB,1.79999798194622e+002°)
1.20226443461741e-002	(3.21965286510930e+001dB,1.79999793493971e+002°)
1.23026877081238e-002	(3.21965286510904e+001dB,1.79999788683828e+002°)
1.25892541179417e-002	(3.21965286510876e+001dB,1.79999783761642e+002°)
1.28824955169313e-002	(3.21965286510847e+001dB,1.79999778724803e+002°)
1.31825673855641e-002	(3.21965286510816e+001dB,1.79999773570642e+002°)
1.34896288259165e-002	(3.21965286510784e+001dB,1.79999768296424e+002°)
1.38038426460288e-002	(3.21965286510751e+001dB,1.79999762899355e+002°)
1.41253754462275e-002	(3.21965286510716e+001dB,1.79999757376571e+002°)
1.44543977074593e-002	(3.21965286510679e+001dB,1.79999751725146e+002°)
1.47910838816821e-002	(3.21965286510640e+001dB,1.79999745942081e+002°)
1.51356124843621e-002	(3.21965286510600e+001dB,1.79999740024312e+002°)
1.54881661891248e-002	(3.21965286510558e+001dB,1.79999733968701e+002°)
1.58489319246111e-002	(3.21965286510514e+001dB,1.79999727772036e+002°)
1.62181009735893e-002	(3.21965286510468e+001dB,1.79999721431032e+002°)
1.65958690743756e-002	(3.21965286510419e+001dB,1.79999714942327e+002°)
1.69824365246174e-002	(3.21965286510369e+001dB,1.79999708302481e+002°)
1.73780082874937e-002	(3.21965286510316e+001dB,1.79999701507973e+002°)
1.77827941003892e-002	(3.21965286510260e+001dB,1.79999694555200e+002°)
1.81970085860998e-002	(3.21965286510202e+001dB,1.79999687440477e+002°)
1.86208713666287e-002	(3.21965286510141e+001dB,1.79999680160030e+002°)
1.90546071796325e-002	(3.21965286510077e+001dB,1.79999672710000e+002°)
1.94984459975804e-002	(3.21965286510010e+001dB,1.79999665086437e+002°)
1.99526231496888e-002	(3.21965286509941e+001dB,1.79999657285298e+002°)
2.04173794466953e-002	(3.21965286509867e+001dB,1.79999649302447e+002°)
2.08929613085404e-002	(3.21965286509791e+001dB,1.79999641133651e+002°)
2.13796208950223e-002	(3.21965286509710e+001dB,1.79999632774580e+002°)
2.18776162394955e-002	(3.21965286509626e+001dB,1.79999624220802e+002°)
2.23872113856834e-002	(3.21965286509538e+001dB,1.79999615467780e+002°)
2.29086765276777e-002	(3.21965286509446e+001dB,1.79999606510874e+002°)
2.34422881531992e-002	(3.21965286509350e+001dB,1.79999597345334e+002°)
2.39883291901949e-002	(3.21965286509248e+001dB,1.79999587966302e+002°)
2.45470891568503e-002	(3.21965286509143e+001dB,1.79999578368805e+002°)
2.51188643150958e-002	(3.21965286509032e+001dB,1.79999568547752e+002°)
2.57039578276886e-002	(3.21965286508916e+001dB,1.79999558497939e+002°)
2.63026799189538e-002	(3.21965286508794e+001dB,1.79999548214034e+002°)
2.69153480392691e-002	(3.21965286508667e+001dB,1.79999537690587e+002°)
2.75422870333816e-002	(3.21965286508534e+001dB,1.79999526922018e+002°)
2.81838293126445e-002	(3.21965286508394e+001dB,1.79999515902616e+002°)
2.88403150312660e-002	(3.21965286508248e+001dB,1.79999504626539e+002°)
2.95120922666638e-002	(3.21965286508095e+001dB,1.79999493087809e+002°)
3.01995172040201e-002	(3.21965286507935e+001dB,1.79999481280307e+002°)
3.09029543251359e-002	(3.21965286507767e+001dB,1.79999469197774e+002°)
3.16227766016838e-002	(3.21965286507592e+001dB,1.79999456833802e+002°)
3.23593656929628e-002	(3.21965286507408e+001dB,1.79999444181835e+002°)
3.31131121482591e-002	(3.21965286507215e+001dB,1.79999431235167e+002°)
3.38844156139202e-002	(3.21965286507013e+001dB,1.79999417986932e+002°)
3.46736850452531e-002	(3.21965286506802e+001dB,1.79999404430106e+002°)
3.54813389233575e-002	(3.21965286506581e+001dB,1.79999390557502e+002°)
3.63078054770101e-002	(3.21965286506350e+001dB,1.79999376361762e+002°)
3.71535229097172e-002	(3.21965286506107e+001dB,1.79999361835361e+002°)
3.80189396320561e-002	(3.21965286505853e+001dB,1.79999346970597e+002°)
3.89045144994280e-002	(3.21965286505587e+001dB,1.79999331759589e+002°)
3.98107170553497e-002	(3.21965286505309e+001dB,1.79999316194270e+002°)
4.07380277804112e-002	(3.21965286505017e+001dB,1.79999300266388e+002°)
4.16869383470335e-002	(3.21965286504712e+001dB,1.79999283967499e+002°)
4.26579518801592e-002	(3.21965286504393e+001dB,1.79999267288959e+002°)
4.36515832240165e-002	(3.21965286504058e+001dB,1.79999250221927e+002°)
4.46683592150962e-002	(3.21965286503707e+001dB,1.79999232757352e+002°)
4.57088189614874e-002	(3.21965286503340e+001dB,1.79999214885975e+002°)
4.67735141287197e-002	(3.21965286502956e+001dB,1.79999196598320e+002°)
4.78630092322637e-002	(3.21965286502554e+001dB,1.79999177884691e+002°)
4.89778819368445e-002	(3.21965286502132e+001dB,1.79999158735165e+002°)
5.01187233627271e-002	(3.21965286501691e+001dB,1.79999139139590e+002°)
5.12861383991364e-002	(3.21965286501229e+001dB,1.79999119087575e+002°)
5.24807460249771e-002	(3.21965286500745e+001dB,1.79999098568488e+002°)
5.37031796370252e-002	(3.21965286500239e+001dB,1.79999077571451e+002°)
5.49540873857623e-002	(3.21965286499708e+001dB,1.79999056085330e+002°)
5.62341325190348e-002	(3.21965286499153e+001dB,1.79999034098733e+002°)
5.75439937337156e-002	(3.21965286498571e+001dB,1.79999011600002e+002°)
5.88843655355588e-002	(3.21965286497962e+001dB,1.79998988577209e+002°)
6.02559586074356e-002	(3.21965286497325e+001dB,1.79998965018146e+002°)
6.16595001861481e-002	(3.21965286496657e+001dB,1.79998940910321e+002°)
6.30957344480192e-002	(3.21965286495957e+001dB,1.79998916240953e+002°)
6.45654229034654e-002	(3.21965286495225e+001dB,1.79998890996962e+002°)
6.60693448007594e-002	(3.21965286494458e+001dB,1.79998865164963e+002°)
6.76082975391980e-002	(3.21965286493656e+001dB,1.79998838731259e+002°)
6.91830970918935e-002	(3.21965286492815e+001dB,1.79998811681836e+002°)
7.07945784384136e-002	(3.21965286491935e+001dB,1.79998784002350e+002°)
7.24435960074988e-002	(3.21965286491013e+001dB,1.79998755678126e+002°)
7.41310241300916e-002	(3.21965286490047e+001dB,1.79998726694146e+002°)
7.58577575029182e-002	(3.21965286489037e+001dB,1.79998697035043e+002°)
7.76247116628690e-002	(3.21965286487978e+001dB,1.79998666685090e+002°)
7.94328234724279e-002	(3.21965286486870e+001dB,1.79998635628196e+002°)
8.12830516164097e-002	(3.21965286485710e+001dB,1.79998603847894e+002°)
8.31763771102669e-002	(3.21965286484494e+001dB,1.79998571327334e+002°)
8.51138038202374e-002	(3.21965286483222e+001dB,1.79998538049273e+002°)
8.70963589956078e-002	(3.21965286481889e+001dB,1.79998503996066e+002°)
8.91250938133743e-002	(3.21965286480494e+001dB,1.79998469149658e+002°)
9.12010839355907e-002	(3.21965286479033e+001dB,1.79998433491572e+002°)
9.33254300796988e-002	(3.21965286477503e+001dB,1.79998397002904e+002°)
9.54992586021433e-002	(3.21965286475901e+001dB,1.79998359664305e+002°)
9.77237220955808e-002	(3.21965286474224e+001dB,1.79998321455978e+002°)
9.99999999999997e-002	(3.21965286472468e+001dB,1.79998282357665e+002°)
1.02329299228075e-001	(3.21965286470628e+001dB,1.79998242348636e+002°)
1.04712854805090e-001	(3.21965286468702e+001dB,1.79998201407676e+002°)
1.07151930523760e-001	(3.21965286466686e+001dB,1.79998159513079e+002°)
1.09647819614318e-001	(3.21965286464574e+001dB,1.79998116642631e+002°)
1.12201845430196e-001	(3.21965286462363e+001dB,1.79998072773603e+002°)
1.14815362149688e-001	(3.21965286460047e+001dB,1.79998027882733e+002°)
1.17489755493953e-001	(3.21965286457622e+001dB,1.79997981946221e+002°)
1.20226443461741e-001	(3.21965286455084e+001dB,1.79997934939710e+002°)
1.23026877081238e-001	(3.21965286452425e+001dB,1.79997886838276e+002°)
1.25892541179416e-001	(3.21965286449641e+001dB,1.79997837616417e+002°)
1.28824955169313e-001	(3.21965286446726e+001dB,1.79997787248033e+002°)
1.31825673855640e-001	(3.21965286443674e+001dB,1.79997735706418e+002°)
1.34896288259165e-001	(3.21965286440477e+001dB,1.79997682964245e+002°)
1.38038426460288e-001	(3.21965286437130e+001dB,1.79997628993550e+002°)
1.41253754462275e-001	(3.21965286433626e+001dB,1.79997573765715e+002°)
1.44543977074592e-001	(3.21965286429956e+001dB,1.79997517251458e+002°)
1.47910838816820e-001	(3.21965286426113e+001dB,1.79997459420816e+002°)
1.51356124843620e-001	(3.21965286422089e+001dB,1.79997400243124e+002°)
1.54881661891248e-001	(3.21965286417876e+001dB,1.79997339687008e+002°)
1.58489319246111e-001	(3.21965286413464e+001dB,1.79997277720358e+002°)
1.62181009735892e-001	(3.21965286408844e+001dB,1.79997214310319e+002°)
1.65958690743755e-001	(3.21965286404006e+001dB,1.79997149423271e+002°)
1.69824365246174e-001	(3.21965286398940e+001dB,1.79997083024809e+002°)
1.73780082874937e-001	(3.21965286393636e+001dB,1.79997015079729e+002°)
1.77827941003892e-001	(3.21965286388081e+001dB,1.79996945552004e+002°)
1.81970085860998e-001	(3.21965286382265e+001dB,1.79996874404771e+002°)
1.86208713666286e-001	(3.21965286376174e+001dB,1.79996801600305e+002°)
1.90546071796324e-001	(3.21965286369797e+001dB,1.79996727100006e+002°)
1.94984459975804e-001	(3.21965286363119e+001dB,1.79996650864372e+002°)
1.99526231496887e-001	(3.21965286356126e+001dB,1.79996572852982e+002°)
2.04173794466952e-001	(3.21965286348804e+001dB,1.79996493024473e+002°)
2.08929613085403e-001	(3.21965286341137e+001dB,1.79996411336519e+002°)
2.13796208950222e-001	(3.21965286333108e+001dB,1.79996327745809e+002°)
2.18776162394954e-001	(3.21965286324701e+001dB,1.79996242208021e+002°)
2.23872113856833e-001	(3.21965286315898e+001dB,1.79996154677801e+002°)
2.29086765276776e-001	(3.21965286306679e+001dB,1.79996065108741e+002°)
2.34422881531991e-001	(3.21965286297027e+001dB,1.79995973453350e+002°)
2.39883291901948e-001	(3.21965286286919e+001dB,1.79995879663030e+002°)
2.45470891568502e-001	(3.21965286276335e+001dB,1.79995783688053e+002°)
2.51188643150957e-001	(3.21965286265253e+001dB,1.79995685477532e+002°)
2.57039578276885e-001	(3.21965286253648e+001dB,1.79995584979394e+002°)
2.63026799189537e-001	(3.21965286241496e+001dB,1.79995482140353e+002°)
2.69153480392690e-001	(3.21965286228771e+001dB,1.79995376905884e+002°)
2.75422870333815e-001	(3.21965286215447e+001dB,1.79995269220189e+002°)
2.81838293126444e-001	(3.21965286201495e+001dB,1.79995159026172e+002°)
2.88403150312659e-001	(3.21965286186885e+001dB,1.79995046265406e+002°)
2.95120922666637e-001	(3.21965286171586e+001dB,1.79994930878105e+002°)
3.01995172040200e-001	(3.21965286155567e+001dB,1.79994812803089e+002°)
3.09029543251358e-001	(3.21965286138793e+001dB,1.79994691977752e+002°)
3.16227766016837e-001	(3.21965286121228e+001dB,1.79994568338031e+002°)
3.23593656929627e-001	(3.21965286102835e+001dB,1.79994441818372e+002°)
3.31131121482590e-001	(3.21965286083576e+001dB,1.79994312351691e+002°)
3.38844156139201e-001	(3.21965286063409e+001dB,1.79994179869344e+002°)
3.46736850452530e-001	(3.21965286042291e+001dB,1.79994044301086e+002°)
3.54813389233574e-001	(3.21965286020178e+001dB,1.79993905575038e+002°)
3.63078054770100e-001	(3.21965285997023e+001dB,1.79993763617646e+002°)
3.71535229097171e-001	(3.21965285972777e+001dB,1.79993618353641e+002°)
3.80189396320559e-001	(3.21965285947388e+001dB,1.79993469706003e+002°)
3.89045144994279e-001	(3.21965285920802e+001dB,1.79993317595917e+002°)
3.98107170553495e-001	(3.21965285892964e+001dB,1.79993161942731e+002°)
4.07380277804111e-001	(3.21965285863813e+001dB,1.79993002663918e+002°)
4.16869383470333e-001	(3.21965285833289e+001dB,1.79992839675024e+002°)
4.26579518801591e-001	(3.21965285801326e+001dB,1.79992672889631e+002°)
4.36515832240164e-001	(3.21965285767857e+001dB,1.79992502219308e+002°)
4.46683592150961e-001	(3.21965285732811e+001dB,1.79992327573562e+002°)
4.57088189614873e-001	(3.21965285696112e+001dB,1.79992148859795e+002°)
4.67735141287196e-001	(3.21965285657684e+001dB,1.79991965983249e+002°)
4.78630092322636e-001	(3.21965285617446e+001dB,1.79991778846961e+002°)
4.89778819368444e-001	(3.21965285575311e+001dB,1.79991587351710e+002°)
5.01187233627270e-001	(3.21965285531190e+001dB,1.79991391395961e+002°)
5.12861383991362e-001	(3.21965285484989e+001dB,1.79991190875817e+002°)
5.24807460249770e-001	(3.21965285436612e+001dB,1.79990985684958e+002°)
5.37031796370250e-001	(3.21965285385954e+001dB,1.79990775714591e+002°)
5.49540873857622e-001	(3.21965285332909e+001dB,1.79990560853386e+002°)
5.62341325190346e-001	(3.21965285277364e+001dB,1.79990340987421e+002°)
5.75439937337154e-001	(3.21965285219201e+001dB,1.79990116000120e+002°)
5.88843655355586e-001	(3.21965285158297e+001dB,1.79989885772192e+002°)
6.02559586074355e-001	(3.21965285094523e+001dB,1.79989650181567e+002°)
6.16595001861479e-001	(3.21965285027743e+001dB,1.79989409103331e+002°)
6.30957344480190e-001	(3.21965284957816e+001dB,1.79989162409663e+002°)
6.45654229034652e-001	(3.21965284884593e+001dB,1.79988909969761e+002°)
6.60693448007592e-001	(3.21965284807920e+001dB,1.79988651649779e+002°)
6.76082975391978e-001	(3.21965284727633e+001dB,1.79988387312752e+002°)
6.91830970918933e-001	(3.21965284643562e+001dB,1.79988116818525e+002°)
7.07945784384134e-001	(3.21965284555529e+001dB,1.79987840023679e+002°)
7.24435960074986e-001	(3.21965284463348e+001dB,1.79987556781453e+002°)
7.41310241300913e-001	(3.21965284366821e+001dB,1.79987266941669e+002°)
7.58577575029179e-001	(3.21965284265746e+001dB,1.79986970350650e+002°)
7.76247116628687e-001	(3.21965284159907e+001dB,1.79986666851139e+002°)
7.94328234724277e-001	(3.21965284049080e+001dB,1.79986356282217e+002°)
8.12830516164095e-001	(3.21965283933030e+001dB,1.79986038479217e+002°)
8.31763771102666e-001	(3.21965283811511e+001dB,1.79985713273634e+002°)
8.51138038202372e-001	(3.21965283684265e+001dB,1.79985380493041e+002°)
8.70963589956076e-001	(3.21965283551022e+001dB,1.79985039960994e+002°)
8.91250938133740e-001	(3.21965283411499e+001dB,1.79984691496937e+002°)
9.12010839355904e-001	(3.21965283265401e+001dB,1.79984334916111e+002°)
9.33254300796986e-001	(3.21965283112417e+001dB,1.79983970029452e+002°)
9.54992586021430e-001	(3.21965282952223e+001dB,1.79983596643492e+002°)
9.77237220955805e-001	(3.21965282784480e+001dB,1.79983214560257e+002°)
9.99999999999994e-001	(3.21965282608831e+001dB,1.79982823577162e+002°)
1.02329299228075e+000	(3.21965282424904e+001dB,1.79982423486902e+002°)
1.04712854805089e+000	(3.21965282232309e+001dB,1.79982014077345e+002°)
1.07151930523760e+000	(3.21965282030638e+001dB,1.79981595131415e+002°)
1.09647819614318e+000	(3.21965281819461e+001dB,1.79981166426984e+002°)
1.12201845430196e+000	(3.21965281598333e+001dB,1.79980727736746e+002°)
1.14815362149688e+000	(3.21965281366783e+001dB,1.79980278828102e+002°)
1.17489755493952e+000	(3.21965281124320e+001dB,1.79979819463035e+002°)
1.20226443461741e+000	(3.21965280870430e+001dB,1.79979349397983e+002°)
1.23026877081237e+000	(3.21965280604575e+001dB,1.79978868383713e+002°)
1.25892541179416e+000	(3.21965280326190e+001dB,1.79978376165184e+002°)
1.28824955169313e+000	(3.21965280034686e+001dB,1.79977872481416e+002°)
1.31825673855640e+000	(3.21965279729444e+001dB,1.79977357065349e+002°)
1.34896288259165e+000	(3.21965279409815e+001dB,1.79976829643704e+002°)
1.38038426460288e+000	(3.21965279075124e+001dB,1.79976289936835e+002°)
1.41253754462275e+000	(3.21965278724658e+001dB,1.79975737658582e+002°)
1.44543977074592e+000	(3.21965278357676e+001dB,1.79975172516120e+002°)
1.47910838816820e+000	(3.21965277973398e+001dB,1.79974594209805e+002°)
1.51356124843620e+000	(3.21965277571010e+001dB,1.79974002433010e+002°)
1.54881661891247e+000	(3.21965277149658e+001dB,1.79973396871969e+002°)
1.58489319246110e+000	(3.21965276708449e+001dB,1.79972777205605e+002°)
1.62181009735892e+000	(3.21965276246446e+001dB,1.79972143105365e+002°)
1.65958690743755e+000	(3.21965275762669e+001dB,1.79971494235039e+002°)
1.69824365246173e+000	(3.21965275256092e+001dB,1.79970830250589e+002°)
1.73780082874936e+000	(3.21965274725642e+001dB,1.79970150799963e+002°)
1.77827941003891e+000	(3.21965274170192e+001dB,1.79969455522907e+002°)
1.81970085860997e+000	(3.21965273588564e+001dB,1.79968744050777e+002°)
1.86208713666286e+000	(3.21965272979525e+001dB,1.79968016006343e+002°)
1.90546071796323e+000	(3.21965272341783e+001dB,1.79967271003585e+002°)
1.94984459975803e+000	(3.21965271673985e+001dB,1.79966508647496e+002°)
1.99526231496887e+000	(3.21965270974715e+001dB,1.79965728533865e+002°)
2.04173794466952e+000	(3.21965270242490e+001dB,1.79964930249066e+002°)
2.08929613085403e+000	(3.21965269475755e+001dB,1.79964113369839e+002°)
2.13796208950222e+000	(3.21965268672886e+001dB,1.79963277463066e+002°)
2.18776162394954e+000	(3.21965267832178e+001dB,1.79962422085539e+002°)
2.23872113856832e+000	(3.21965266951849e+001dB,1.79961546783728e+002°)
2.29086765276776e+000	(3.21965266030032e+001dB,1.79960651093536e+002°)
2.34422881531990e+000	(3.21965265064771e+001dB,1.79959734540060e+002°)
2.39883291901947e+000	(3.21965264054018e+001dB,1.79958796637332e+002°)
2.45470891568501e+000	(3.21965262995630e+001dB,1.79957836888066e+002°)
2.51188643150956e+000	(3.21965261887362e+001dB,1.79956854783392e+002°)
2.57039578276884e+000	(3.21965260726862e+001dB,1.79955849802588e+002°)
2.63026799189536e+000	(3.21965259511671e+001dB,1.79954821412802e+002°)
2.69153480392690e+000	(3.21965258239208e+001dB,1.79953769068770e+002°)
2.75422870333815e+000	(3.21965256906777e+001dB,1.79952692212530e+002°)
2.81838293126443e+000	(3.21965255511550e+001dB,1.79951590273120e+002°)
2.88403150312658e+000	(3.21965254050568e+001dB,1.79950462666281e+002°)
2.95120922666636e+000	(3.21965252520733e+001dB,1.79949308794144e+002°)
3.01995172040199e+000	(3.21965250918798e+001dB,1.79948128044915e+002°)
3.09029543251357e+000	(3.21965249241367e+001dB,1.79946919792549e+002°)
3.16227766016835e+000	(3.21965247484881e+001dB,1.79945683396419e+002°)
3.23593656929626e+000	(3.21965245645614e+001dB,1.79944418200976e+002°)
3.31131121482589e+000	(3.21965243719665e+001dB,1.79943123535401e+002°)
3.38844156139200e+000	(3.21965241702950e+001dB,1.79941798713251e+002°)
3.46736850452529e+000	(3.21965239591189e+001dB,1.79940443032093e+002°)
3.54813389233573e+000	(3.21965237379904e+001dB,1.79939055773134e+002°)
3.63078054770098e+000	(3.21965235064405e+001dB,1.79937636200836e+002°)
3.71535229097170e+000	(3.21965232639780e+001dB,1.79936183562531e+002°)
3.80189396320558e+000	(3.21965230100886e+001dB,1.79934697088018e+002°)
3.89045144994278e+000	(3.21965227442338e+001dB,1.79933175989157e+002°)
3.98107170553494e+000	(3.21965224658496e+001dB,1.79931619459449e+002°)
4.07380277804109e+000	(3.21965221743457e+001dB,1.79930026673611e+002°)
4.16869383470332e+000	(3.21965218691035e+001dB,1.79928396787137e+002°)
4.26579518801589e+000	(3.21965215494758e+001dB,1.79926728935850e+002°)
4.36515832240162e+000	(3.21965212147845e+001dB,1.79925022235445e+002°)
4.46683592150959e+000	(3.21965208643198e+001dB,1.79923275781017e+002°)
4.57088189614871e+000	(3.21965204973381e+001dB,1.79921488646588e+002°)
4.67735141287194e+000	(3.21965201130612e+001dB,1.79919659884609e+002°)
4.78630092322634e+000	(3.21965197106739e+001dB,1.79917788525460e+002°)
4.89778819368442e+000	(3.21965192893228e+001dB,1.79915873576939e+002°)
5.01187233627268e+000	(3.21965188481140e+001dB,1.79913914023731e+002°)
5.12861383991361e+000	(3.21965183861117e+001dB,1.79911908826874e+002°)
5.24807460249768e+000	(3.21965179023360e+001dB,1.79909856923205e+002°)
5.37031796370248e+000	(3.21965173957607e+001dB,1.79907757224799e+002°)
5.49540873857620e+000	(3.21965168653112e+001dB,1.79905608618391e+002°)
5.62341325190344e+000	(3.21965163098626e+001dB,1.79903409964786e+002°)
5.75439937337152e+000	(3.21965157282365e+001dB,1.79901160098253e+002°)
