frequency,V(inoise),V(onoise)
1.000000000000000e+000,1.216842e-007,2.408605e-008
1.023292992280754e+000,1.199995e-007,2.404076e-008
1.047128548050899e+000,1.183429e-007,2.399633e-008
1.071519305237606e+000,1.167131e-007,2.395279e-008
1.096478196143185e+000,1.151087e-007,2.391014e-008
1.122018454301963e+000,1.135284e-007,2.386840e-008
1.148153621496882e+000,1.119707e-007,2.382759e-008
1.174897554939529e+000,1.104346e-007,2.378771e-008
1.202264434617413e+000,1.089188e-007,2.374879e-008
1.230268770812381e+000,1.074221e-007,2.371081e-008
1.258925411794167e+000,1.059436e-007,2.367378e-008
1.288249551693134e+000,1.044821e-007,2.363771e-008
1.318256738556407e+000,1.030368e-007,2.360260e-008
1.348962882591653e+000,1.016067e-007,2.356843e-008
1.380384264602885e+000,1.001910e-007,2.353521e-008
1.412537544622754e+000,9.878890e-008,2.350293e-008
1.445439770745927e+000,9.739971e-008,2.347159e-008
1.479108388168207e+000,9.602275e-008,2.344116e-008
1.513561248436208e+000,9.465741e-008,2.341165e-008
1.548816618912481e+000,9.330315e-008,2.338303e-008
1.584893192461113e+000,9.195949e-008,2.335530e-008
1.621810097358929e+000,9.062597e-008,2.332845e-008
1.659586907437560e+000,8.930223e-008,2.330245e-008
1.698243652461744e+000,8.798793e-008,2.327729e-008
1.737800828749375e+000,8.668280e-008,2.325295e-008
1.778279410038922e+000,8.538661e-008,2.322941e-008
1.819700858609982e+000,8.409918e-008,2.320667e-008
1.862087136662866e+000,8.282038e-008,2.318470e-008
1.905460717963246e+000,8.155011e-008,2.316347e-008
1.949844599758044e+000,8.028832e-008,2.314297e-008
1.995262314968878e+000,7.903498e-008,2.312319e-008
2.041737944669527e+000,7.779014e-008,2.310409e-008
2.089296130854037e+000,7.655384e-008,2.308567e-008
2.137962089502230e+000,7.532615e-008,2.306790e-008
2.187761623949550e+000,7.410719e-008,2.305076e-008
2.238721138568337e+000,7.289709e-008,2.303423e-008
2.290867652767771e+000,7.169601e-008,2.301829e-008
2.344228815319919e+000,7.050412e-008,2.300293e-008
2.398832919019488e+000,6.932161e-008,2.298812e-008
2.454708915685028e+000,6.814869e-008,2.297384e-008
2.511886431509577e+000,6.698556e-008,2.296008e-008
2.570395782768860e+000,6.583246e-008,2.294681e-008
2.630267991895378e+000,6.468960e-008,2.293402e-008
2.691534803926912e+000,6.355724e-008,2.292168e-008
2.754228703338163e+000,6.243559e-008,2.290979e-008
2.818382931264450e+000,6.132490e-008,2.289832e-008
2.884031503126602e+000,6.022540e-008,2.288725e-008
2.951209226666381e+000,5.913732e-008,2.287657e-008
3.019951720402012e+000,5.806088e-008,2.286627e-008
3.090295432513586e+000,5.699630e-008,2.285631e-008
3.162277660168374e+000,5.594380e-008,2.284670e-008
3.235936569296277e+000,5.490357e-008,2.283741e-008
3.311311214825905e+000,5.387581e-008,2.282843e-008
3.388441561392020e+000,5.286068e-008,2.281974e-008
3.467368504525310e+000,5.185837e-008,2.281132e-008
3.548133892335748e+000,5.086903e-008,2.280317e-008
3.630780547701007e+000,4.989281e-008,2.279527e-008
3.715352290971719e+000,4.892982e-008,2.278760e-008
3.801893963205605e+000,4.798020e-008,2.278016e-008
3.890451449942799e+000,4.704403e-008,2.277292e-008
3.981071705534965e+000,4.612142e-008,2.276588e-008
4.073802778041119e+000,4.521243e-008,2.275902e-008
4.168693834703346e+000,4.431714e-008,2.275233e-008
4.265795188015918e+000,4.343558e-008,2.274579e-008
4.365158322401651e+000,4.256779e-008,2.273940e-008
4.466835921509622e+000,4.171379e-008,2.273315e-008
4.570881896148741e+000,4.087360e-008,2.272701e-008
4.677351412871972e+000,4.004720e-008,2.272098e-008
4.786300923226373e+000,3.923459e-008,2.271506e-008
4.897788193684452e+000,3.843573e-008,2.270922e-008
5.011872336272712e+000,3.765059e-008,2.270345e-008
5.128613839913638e+000,3.687912e-008,2.269775e-008
5.248074602497715e+000,3.612126e-008,2.269211e-008
5.370317963702516e+000,3.537694e-008,2.268651e-008
5.495408738576233e+000,3.464609e-008,2.268093e-008
5.623413251903478e+000,3.392861e-008,2.267539e-008
5.754399373371556e+000,3.322441e-008,2.266985e-008
5.888436553555876e+000,3.253340e-008,2.266432e-008
6.025595860743564e+000,3.185545e-008,2.265877e-008
6.165950018614807e+000,3.119047e-008,2.265321e-008
6.309573444801917e+000,3.053831e-008,2.264762e-008
6.456542290346540e+000,2.989886e-008,2.264198e-008
6.606934480075944e+000,2.927198e-008,2.263630e-008
6.760829753919802e+000,2.865754e-008,2.263055e-008
6.918309709189348e+000,2.805538e-008,2.262473e-008
7.079457843841362e+000,2.746538e-008,2.261883e-008
7.244359600749883e+000,2.688738e-008,2.261284e-008
7.413102413009157e+000,2.632122e-008,2.260674e-008
7.585775750291819e+000,2.576675e-008,2.260053e-008
7.762471166286898e+000,2.522382e-008,2.259419e-008
7.943282347242795e+000,2.469227e-008,2.258772e-008
8.128305161640972e+000,2.417193e-008,2.258110e-008
8.317637711026690e+000,2.366264e-008,2.257432e-008
8.511380382023743e+000,2.316425e-008,2.256737e-008
8.709635899560784e+000,2.267658e-008,2.256025e-008
8.912509381337431e+000,2.219948e-008,2.255293e-008
9.120108393559072e+000,2.173277e-008,2.254541e-008
9.332543007969884e+000,2.127630e-008,2.253767e-008
9.549925860214332e+000,2.082990e-008,2.252971e-008
9.772372209558078e+000,2.039340e-008,2.252151e-008
9.999999999999970e+000,1.996665e-008,2.251306e-008
1.023292992280751e+001,1.954947e-008,2.250435e-008
1.047128548050896e+001,1.914172e-008,2.249536e-008
1.071519305237603e+001,1.874322e-008,2.248609e-008
1.096478196143182e+001,1.835382e-008,2.247653e-008
1.122018454301960e+001,1.797336e-008,2.246665e-008
1.148153621496879e+001,1.760169e-008,2.245645e-008
1.174897554939526e+001,1.723864e-008,2.244592e-008
1.202264434617409e+001,1.688406e-008,2.243504e-008
1.230268770812378e+001,1.653780e-008,2.242381e-008
1.258925411794163e+001,1.619972e-008,2.241221e-008
1.288249551693130e+001,1.586965e-008,2.240022e-008
1.318256738556403e+001,1.554746e-008,2.238785e-008
1.348962882591649e+001,1.523300e-008,2.237507e-008
1.380384264602880e+001,1.492612e-008,2.236188e-008
1.412537544622749e+001,1.462669e-008,2.234826e-008
1.445439770745922e+001,1.433456e-008,2.233421e-008
1.479108388168202e+001,1.404960e-008,2.231971e-008
1.513561248436203e+001,1.377168e-008,2.230476e-008
1.548816618912476e+001,1.350065e-008,2.228934e-008
1.584893192461108e+001,1.323638e-008,2.227345e-008
1.621810097358924e+001,1.297875e-008,2.225708e-008
1.659586907437554e+001,1.272764e-008,2.224022e-008
1.698243652461738e+001,1.248290e-008,2.222287e-008
1.737800828749369e+001,1.224443e-008,2.220501e-008
1.778279410038916e+001,1.201209e-008,2.218666e-008
1.819700858609976e+001,1.178577e-008,2.216779e-008
1.862087136662860e+001,1.156535e-008,2.214841e-008
1.905460717963240e+001,1.135071e-008,2.212851e-008
1.949844599758038e+001,1.114174e-008,2.210810e-008
1.995262314968872e+001,1.093833e-008,2.208717e-008
2.041737944669522e+001,1.074036e-008,2.206573e-008
2.089296130854032e+001,1.054772e-008,2.204378e-008
2.137962089502224e+001,1.036032e-008,2.202132e-008
2.187761623949544e+001,1.017804e-008,2.199836e-008
2.238721138568331e+001,1.000077e-008,2.197490e-008
2.290867652767764e+001,9.828418e-009,2.195096e-008
2.344228815319913e+001,9.660880e-009,2.192653e-008
2.398832919019481e+001,9.498057e-009,2.190164e-008
2.454708915685020e+001,9.339847e-009,2.187630e-008
2.511886431509570e+001,9.186157e-009,2.185051e-008
2.570395782768853e+001,9.036889e-009,2.182430e-008
2.630267991895371e+001,8.891950e-009,2.179768e-008
2.691534803926904e+001,8.751247e-009,2.177067e-008
2.754228703338155e+001,8.614688e-009,2.174329e-008
2.818382931264442e+001,8.482182e-009,2.171556e-008
2.884031503126593e+001,8.353640e-009,2.168751e-008
2.951209226666373e+001,8.228976e-009,2.165915e-008
3.019951720402003e+001,8.108101e-009,2.163051e-008
3.090295432513577e+001,7.990930e-009,2.160163e-008
3.162277660168365e+001,7.877378e-009,2.157252e-008
3.235936569296268e+001,7.767361e-009,2.154321e-008
3.311311214825896e+001,7.660798e-009,2.151374e-008
3.388441561392011e+001,7.557607e-009,2.148413e-008
3.467368504525301e+001,7.457707e-009,2.145441e-008
3.548133892335738e+001,7.361019e-009,2.142461e-008
3.630780547700997e+001,7.267465e-009,2.139477e-008
3.715352290971708e+001,7.176968e-009,2.136492e-008
3.801893963205595e+001,7.089450e-009,2.133508e-008
3.890451449942788e+001,7.004838e-009,2.130529e-008
3.981071705534954e+001,6.923055e-009,2.127558e-008
4.073802778041109e+001,6.844030e-009,2.124598e-008
4.168693834703335e+001,6.767689e-009,2.121652e-008
4.265795188015907e+001,6.693962e-009,2.118723e-008
4.365158322401639e+001,6.622778e-009,2.115814e-008
4.466835921509610e+001,6.554068e-009,2.112928e-008
4.570881896148729e+001,6.487763e-009,2.110067e-008
4.677351412871960e+001,6.423796e-009,2.107235e-008
4.786300923226361e+001,6.362102e-009,2.104433e-008
4.897788193684438e+001,6.302614e-009,2.101664e-008
5.011872336272698e+001,6.245269e-009,2.098931e-008
5.128613839913624e+001,6.190005e-009,2.096235e-008
5.248074602497700e+001,6.136758e-009,2.093578e-008
5.370317963702501e+001,6.085469e-009,2.090963e-008
5.495408738576219e+001,6.036077e-009,2.088392e-008
5.623413251903463e+001,5.988524e-009,2.085865e-008
5.754399373371541e+001,5.942753e-009,2.083384e-008
5.888436553555861e+001,5.898708e-009,2.080950e-008
6.025595860743547e+001,5.856333e-009,2.078566e-008
6.165950018614791e+001,5.815574e-009,2.076230e-008
6.309573444801901e+001,5.776378e-009,2.073946e-008
6.456542290346522e+001,5.738695e-009,2.071712e-008
6.606934480075925e+001,5.702474e-009,2.069531e-008
6.760829753919782e+001,5.667664e-009,2.067401e-008
6.918309709189329e+001,5.634219e-009,2.065324e-008
7.079457843841342e+001,5.602091e-009,2.063300e-008
7.244359600749863e+001,5.571235e-009,2.061329e-008
7.413102413009136e+001,5.541605e-009,2.059410e-008
7.585775750291798e+001,5.513160e-009,2.057545e-008
7.762471166286876e+001,5.485856e-009,2.055731e-008
7.943282347242773e+001,5.459653e-009,2.053970e-008
8.128305161640949e+001,5.434509e-009,2.052260e-008
8.317637711026666e+001,5.410388e-009,2.050601e-008
8.511380382023719e+001,5.387251e-009,2.048993e-008
8.709635899560760e+001,5.365061e-009,2.047435e-008
8.912509381337408e+001,5.343783e-009,2.045926e-008
9.120108393559049e+001,5.323383e-009,2.044465e-008
9.332543007969861e+001,5.303827e-009,2.043052e-008
9.549925860214309e+001,5.285083e-009,2.041686e-008
9.772372209558054e+001,5.267121e-009,2.040366e-008
9.999999999999946e+001,5.249909e-009,2.039090e-008
1.023292992280749e+002,5.233418e-009,2.037858e-008
1.047128548050894e+002,5.217621e-009,2.036670e-008
1.071519305237600e+002,5.202489e-009,2.035523e-008
1.096478196143179e+002,5.187997e-009,2.034417e-008
1.122018454301957e+002,5.174119e-009,2.033351e-008
1.148153621496876e+002,5.160831e-009,2.032324e-008
1.174897554939523e+002,5.148108e-009,2.031334e-008
1.202264434617406e+002,5.135929e-009,2.030382e-008
1.230268770812374e+002,5.124270e-009,2.029464e-008
1.258925411794160e+002,5.113111e-009,2.028582e-008
1.288249551693126e+002,5.102431e-009,2.027733e-008
1.318256738556399e+002,5.092212e-009,2.026917e-008
1.348962882591646e+002,5.082432e-009,2.026132e-008
1.380384264602876e+002,5.073075e-009,2.025377e-008
1.412537544622746e+002,5.064123e-009,2.024652e-008
1.445439770745919e+002,5.055560e-009,2.023956e-008
1.479108388168199e+002,5.047367e-009,2.023287e-008
1.513561248436199e+002,5.039531e-009,2.022645e-008
1.548816618912472e+002,5.032036e-009,2.022029e-008
1.584893192461104e+002,5.024869e-009,2.021438e-008
1.621810097358920e+002,5.018014e-009,2.020870e-008
1.659586907437551e+002,5.011458e-009,2.020325e-008
1.698243652461734e+002,5.005190e-009,2.019803e-008
1.737800828749365e+002,4.999196e-009,2.019302e-008
1.778279410038912e+002,4.993466e-009,2.018822e-008
1.819700858609972e+002,4.987987e-009,2.018362e-008
1.862087136662856e+002,4.982749e-009,2.017921e-008
1.905460717963235e+002,4.977741e-009,2.017498e-008
1.949844599758033e+002,4.972955e-009,2.017093e-008
1.995262314968867e+002,4.968379e-009,2.016705e-008
2.041737944669516e+002,4.964006e-009,2.016333e-008
2.089296130854026e+002,4.959825e-009,2.015977e-008
2.137962089502218e+002,4.955830e-009,2.015636e-008
2.187761623949538e+002,4.952011e-009,2.015310e-008
2.238721138568325e+002,4.948361e-009,2.014997e-008
2.290867652767758e+002,4.944873e-009,2.014698e-008
2.344228815319906e+002,4.941540e-009,2.014411e-008
2.398832919019474e+002,4.938355e-009,2.014137e-008
2.454708915685014e+002,4.935311e-009,2.013875e-008
2.511886431509563e+002,4.932402e-009,2.013624e-008
2.570395782768846e+002,4.929622e-009,2.013383e-008
2.630267991895364e+002,4.926967e-009,2.013153e-008
2.691534803926897e+002,4.924429e-009,2.012933e-008
2.754228703338148e+002,4.922005e-009,2.012723e-008
2.818382931264435e+002,4.919688e-009,2.012522e-008
2.884031503126586e+002,4.917474e-009,2.012329e-008
2.951209226666366e+002,4.915360e-009,2.012145e-008
3.019951720401995e+002,4.913340e-009,2.011969e-008
3.090295432513569e+002,4.911410e-009,2.011801e-008
3.162277660168357e+002,4.909565e-009,2.011640e-008
3.235936569296260e+002,4.907803e-009,2.011486e-008
3.311311214825888e+002,4.906120e-009,2.011339e-008
3.388441561392002e+002,4.904513e-009,2.011198e-008
3.467368504525292e+002,4.902977e-009,2.011063e-008
3.548133892335729e+002,4.901509e-009,2.010935e-008
3.630780547700987e+002,4.900108e-009,2.010812e-008
3.715352290971698e+002,4.898769e-009,2.010695e-008
3.801893963205584e+002,4.897490e-009,2.010582e-008
3.890451449942777e+002,4.896268e-009,2.010475e-008
3.981071705534943e+002,4.895101e-009,2.010372e-008
4.073802778041097e+002,4.893987e-009,2.010274e-008
4.168693834703323e+002,4.892922e-009,2.010180e-008
4.265795188015895e+002,4.891904e-009,2.010091e-008
4.365158322401627e+002,4.890933e-009,2.010005e-008
4.466835921509598e+002,4.890005e-009,2.009923e-008
4.570881896148716e+002,4.889118e-009,2.009845e-008
4.677351412871947e+002,4.888272e-009,2.009771e-008
4.786300923226348e+002,4.887463e-009,2.009699e-008
4.897788193684425e+002,4.886691e-009,2.009631e-008
5.011872336272685e+002,4.885953e-009,2.009566e-008
5.128613839913610e+002,4.885248e-009,2.009504e-008
5.248074602497686e+002,4.884575e-009,2.009444e-008
5.370317963702487e+002,4.883932e-009,2.009387e-008
5.495408738576203e+002,4.883318e-009,2.009333e-008
5.623413251903447e+002,4.882732e-009,2.009281e-008
5.754399373371524e+002,4.882172e-009,2.009232e-008
5.888436553555844e+002,4.881637e-009,2.009184e-008
6.025595860743530e+002,4.881126e-009,2.009139e-008
6.165950018614773e+002,4.880638e-009,2.009096e-008
6.309573444801882e+002,4.880172e-009,2.009054e-008
6.456542290346504e+002,4.879726e-009,2.009015e-008
6.606934480075908e+002,4.879301e-009,2.008977e-008
6.760829753919763e+002,4.878896e-009,2.008941e-008
6.918309709189309e+002,4.878507e-009,2.008907e-008
7.079457843841321e+002,4.878137e-009,2.008874e-008
7.244359600749841e+002,4.877784e-009,2.008843e-008
7.413102413009113e+002,4.877446e-009,2.008813e-008
7.585775750291774e+002,4.877123e-009,2.008784e-008
7.762471166286852e+002,4.876815e-009,2.008757e-008
7.943282347242747e+002,4.876521e-009,2.008731e-008
8.128305161640923e+002,4.876239e-009,2.008706e-008
8.317637711026639e+002,4.875971e-009,2.008682e-008
8.511380382023692e+002,4.875714e-009,2.008659e-008
8.709635899560732e+002,4.875470e-009,2.008638e-008
8.912509381337379e+002,4.875236e-009,2.008617e-008
9.120108393559019e+002,4.875012e-009,2.008597e-008
9.332543007969830e+002,4.874799e-009,2.008578e-008
9.549925860214277e+002,4.874595e-009,2.008560e-008
9.772372209558022e+002,4.874401e-009,2.008542e-008
9.999999999999913e+002,4.874215e-009,2.008526e-008
1.023292992280745e+003,4.874038e-009,2.008510e-008
1.047128548050890e+003,4.873868e-009,2.008495e-008
1.071519305237597e+003,4.873707e-009,2.008481e-008
1.096478196143175e+003,4.873552e-009,2.008467e-008
1.122018454301953e+003,4.873404e-009,2.008454e-008
1.148153621496872e+003,4.873264e-009,2.008441e-008
1.174897554939519e+003,4.873129e-009,2.008430e-008
1.202264434617402e+003,4.873000e-009,2.008418e-008
1.230268770812370e+003,4.872878e-009,2.008407e-008
1.258925411794156e+003,4.872760e-009,2.008397e-008
1.288249551693122e+003,4.872649e-009,2.008387e-008
1.318256738556395e+003,4.872541e-009,2.008377e-008
1.348962882591641e+003,4.872439e-009,2.008368e-008
1.380384264602872e+003,4.872342e-009,2.008359e-008
1.412537544622741e+003,4.872248e-009,2.008351e-008
1.445439770745914e+003,4.872160e-009,2.008343e-008
1.479108388168193e+003,4.872075e-009,2.008336e-008
1.513561248436194e+003,4.871993e-009,2.008328e-008
1.548816618912467e+003,4.871916e-009,2.008322e-008
1.584893192461099e+003,4.871842e-009,2.008315e-008
1.621810097358915e+003,4.871771e-009,2.008309e-008
1.659586907437545e+003,4.871704e-009,2.008303e-008
1.698243652461728e+003,4.871640e-009,2.008297e-008
1.737800828749359e+003,4.871578e-009,2.008291e-008
1.778279410038906e+003,4.871519e-009,2.008286e-008
1.819700858609966e+003,4.871463e-009,2.008281e-008
1.862087136662849e+003,4.871409e-009,2.008276e-008
1.905460717963229e+003,4.871358e-009,2.008272e-008
1.949844599758026e+003,4.871309e-009,2.008267e-008
1.995262314968860e+003,4.871263e-009,2.008263e-008
2.041737944669509e+003,4.871218e-009,2.008259e-008
2.089296130854019e+003,4.871175e-009,2.008255e-008
2.137962089502211e+003,4.871135e-009,2.008252e-008
2.187761623949531e+003,4.871096e-009,2.008248e-008
2.238721138568317e+003,4.871059e-009,2.008245e-008
2.290867652767750e+003,4.871024e-009,2.008242e-008
2.344228815319898e+003,4.870990e-009,2.008239e-008
2.398832919019466e+003,4.870957e-009,2.008236e-008
2.454708915685005e+003,4.870926e-009,2.008233e-008
2.511886431509554e+003,4.870897e-009,2.008230e-008
2.570395782768837e+003,4.870869e-009,2.008228e-008
2.630267991895355e+003,4.870842e-009,2.008225e-008
2.691534803926887e+003,4.870816e-009,2.008223e-008
2.754228703338138e+003,4.870792e-009,2.008221e-008
2.818382931264424e+003,4.870769e-009,2.008219e-008
2.884031503126575e+003,4.870746e-009,2.008217e-008
2.951209226666354e+003,4.870725e-009,2.008215e-008
3.019951720401984e+003,4.870704e-009,2.008213e-008
3.090295432513557e+003,4.870685e-009,2.008211e-008
3.162277660168345e+003,4.870667e-009,2.008209e-008
3.235936569296248e+003,4.870649e-009,2.008208e-008
3.311311214825875e+003,4.870632e-009,2.008206e-008
3.388441561391989e+003,4.870615e-009,2.008205e-008
3.467368504525279e+003,4.870600e-009,2.008203e-008
3.548133892335716e+003,4.870585e-009,2.008202e-008
3.630780547700973e+003,4.870572e-009,2.008200e-008
3.715352290971684e+003,4.870558e-009,2.008199e-008
3.801893963205570e+003,4.870545e-009,2.008198e-008
3.890451449942763e+003,4.870533e-009,2.008197e-008
3.981071705534928e+003,4.870521e-009,2.008196e-008
4.073802778041082e+003,4.870510e-009,2.008194e-008
4.168693834703307e+003,4.870499e-009,2.008193e-008
4.265795188015879e+003,4.870489e-009,2.008192e-008
4.365158322401610e+003,4.870479e-009,2.008191e-008
4.466835921509581e+003,4.870470e-009,2.008191e-008
4.570881896148699e+003,4.870461e-009,2.008190e-008
4.677351412871929e+003,4.870452e-009,2.008189e-008
4.786300923226329e+003,4.870444e-009,2.008188e-008
4.897788193684407e+003,4.870437e-009,2.008187e-008
5.011872336272666e+003,4.870429e-009,2.008186e-008
5.128613839913590e+003,4.870422e-009,2.008185e-008
5.248074602497666e+003,4.870416e-009,2.008185e-008
5.370317963702466e+003,4.870409e-009,2.008184e-008
5.495408738576182e+003,4.870403e-009,2.008183e-008
5.623413251903426e+003,4.870397e-009,2.008183e-008
5.754399373371502e+003,4.870392e-009,2.008182e-008
5.888436553555821e+003,4.870387e-009,2.008181e-008
6.025595860743507e+003,4.870381e-009,2.008180e-008
6.165950018614749e+003,4.870377e-009,2.008180e-008
6.309573444801858e+003,4.870372e-009,2.008179e-008
6.456542290346478e+003,4.870368e-009,2.008179e-008
6.606934480075881e+003,4.870364e-009,2.008178e-008
6.760829753919737e+003,4.870360e-009,2.008177e-008
