Freq.	V(vout2)/I(vs)
1.00000000000000e-002	(6.03049104268833e+001dB,1.79603882490309e+002°)
1.02329299228075e-002	(6.03049167827603e+001dB,1.79594655900652e+002°)
1.04712854805090e-002	(6.03049234378240e+001dB,1.79585214408442e+002°)
1.07151930523761e-002	(6.03049304065256e+001dB,1.79575553008851e+002°)
1.09647819614318e-002	(6.03049377042396e+001dB,1.79565666580502e+002°)
1.12201845430196e-002	(6.03049453452945e+001dB,1.79555549882835e+002°)
1.14815362149688e-002	(6.03049533468842e+001dB,1.79545197553260e+002°)
1.17489755493953e-002	(6.03049617249546e+001dB,1.79534604104372e+002°)
1.20226443461741e-002	(6.03049704984929e+001dB,1.79523763921023e+002°)
1.23026877081238e-002	(6.03049796848577e+001dB,1.79512671257379e+002°)
1.25892541179417e-002	(6.03049893046136e+001dB,1.79501320233827e+002°)
1.28824955169313e-002	(6.03049993776156e+001dB,1.79489704833934e+002°)
1.31825673855641e-002	(6.03050099253022e+001dB,1.79477818901223e+002°)
1.34896288259165e-002	(6.03050209697369e+001dB,1.79465656135949e+002°)
1.38038426460288e-002	(6.03050325351990e+001dB,1.79453210091718e+002°)
1.41253754462275e-002	(6.03050446455256e+001dB,1.79440474172150e+002°)
1.44543977074593e-002	(6.03050573265264e+001dB,1.79427441627341e+002°)
1.47910838816821e-002	(6.03050706046904e+001dB,1.79414105550325e+002°)
1.51356124843621e-002	(6.03050845092708e+001dB,1.79400458873401e+002°)
1.54881661891248e-002	(6.03050990684767e+001dB,1.79386494364448e+002°)
1.58489319246111e-002	(6.03051143142334e+001dB,1.79372204623054e+002°)
1.62181009735893e-002	(6.03051302785086e+001dB,1.79357582076634e+002°)
1.65958690743756e-002	(6.03051469946211e+001dB,1.79342618976443e+002°)
1.69824365246174e-002	(6.03051644987376e+001dB,1.79327307393482e+002°)
1.73780082874937e-002	(6.03051828276530e+001dB,1.79311639214296e+002°)
1.77827941003892e-002	(6.03052020203046e+001dB,1.79295606136734e+002°)
1.81970085860998e-002	(6.03052221171948e+001dB,1.79279199665524e+002°)
1.86208713666287e-002	(6.03052431615500e+001dB,1.79262411107847e+002°)
1.90546071796325e-002	(6.03052651972506e+001dB,1.79245231568731e+002°)
1.94984459975804e-002	(6.03052882718309e+001dB,1.79227651946344e+002°)
1.99526231496888e-002	(6.03053124328807e+001dB,1.79209662927260e+002°)
2.04173794466953e-002	(6.03053377332606e+001dB,1.79191254981486e+002°)
2.08929613085404e-002	(6.03053642253906e+001dB,1.79172418357526e+002°)
2.13796208950223e-002	(6.03053919659945e+001dB,1.79153143077168e+002°)
2.18776162394955e-002	(6.03054210135862e+001dB,1.79133418930298e+002°)
2.23872113856834e-002	(6.03054514300635e+001dB,1.79113235469521e+002°)
2.29086765276777e-002	(6.03054832795855e+001dB,1.79092582004649e+002°)
2.34422881531992e-002	(6.03055166301793e+001dB,1.79071447597106e+002°)
2.39883291901949e-002	(6.03055515523022e+001dB,1.79049821054199e+002°)
2.45470891568503e-002	(6.03055881195702e+001dB,1.79027690923221e+002°)
2.51188643150958e-002	(6.03056264098252e+001dB,1.79005045485463e+002°)
2.57039578276886e-002	(6.03056665044750e+001dB,1.78981872750030e+002°)
2.63026799189538e-002	(6.03057084883110e+001dB,1.78958160447635e+002°)
2.69153480392691e-002	(6.03057524503238e+001dB,1.78933896024119e+002°)
2.75422870333816e-002	(6.03057984834648e+001dB,1.78909066633903e+002°)
2.81838293126445e-002	(6.03058466855914e+001dB,1.78883659133243e+002°)
2.88403150312660e-002	(6.03058971588520e+001dB,1.78857660073417e+002°)
2.95120922666638e-002	(6.03059500100164e+001dB,1.78831055693650e+002°)
3.01995172040201e-002	(6.03060053515525e+001dB,1.78803831913961e+002°)
3.09029543251359e-002	(6.03060633002313e+001dB,1.78775974327800e+002°)
3.16227766016838e-002	(6.03061239788661e+001dB,1.78747468194575e+002°)
3.23593656929628e-002	(6.03061875165499e+001dB,1.78718298431947e+002°)
3.31131121482591e-002	(6.03062540470985e+001dB,1.78688449608035e+002°)
3.38844156139202e-002	(6.03063237121720e+001dB,1.78657905933282e+002°)
3.46736850452531e-002	(6.03063966594321e+001dB,1.78626651252409e+002°)
3.54813389233575e-002	(6.03064730428706e+001dB,1.78594669035946e+002°)
3.63078054770101e-002	(6.03065530246892e+001dB,1.78561942371681e+002°)
3.71535229097172e-002	(6.03066367743682e+001dB,1.78528453955910e+002°)
3.80189396320561e-002	(6.03067244685818e+001dB,1.78494186084521e+002°)
3.89045144994280e-002	(6.03068162941032e+001dB,1.78459120643774e+002°)
3.98107170553497e-002	(6.03069124449434e+001dB,1.78423239101107e+002°)
4.07380277804112e-002	(6.03070131244422e+001dB,1.78386522495436e+002°)
4.16869383470335e-002	(6.03071185462151e+001dB,1.78348951427479e+002°)
4.26579518801592e-002	(6.03072289334229e+001dB,1.78310506049826e+002°)
4.36515832240165e-002	(6.03073445198870e+001dB,1.78271166056699e+002°)
4.46683592150962e-002	(6.03074655498500e+001dB,1.78230910673602e+002°)
4.57088189614874e-002	(6.03075922799782e+001dB,1.78189718646682e+002°)
4.67735141287197e-002	(6.03077249784600e+001dB,1.78147568231920e+002°)
4.78630092322637e-002	(6.03078639255946e+001dB,1.78104437184042e+002°)
4.89778819368445e-002	(6.03080094164999e+001dB,1.78060302745158e+002°)
5.01187233627271e-002	(6.03081617580209e+001dB,1.78015141633378e+002°)
5.12861383991364e-002	(6.03083212732986e+001dB,1.77968930030813e+002°)
5.24807460249771e-002	(6.03084882992490e+001dB,1.77921643571793e+002°)
5.37031796370252e-002	(6.03086631893915e+001dB,1.77873257330394e+002°)
5.49540873857623e-002	(6.03088463134994e+001dB,1.77823745808043e+002°)
5.62341325190348e-002	(6.03090380590689e+001dB,1.77773082920639e+002°)
5.75439937337156e-002	(6.03092388310435e+001dB,1.77721241985628e+002°)
5.88843655355588e-002	(6.03094490545951e+001dB,1.77668195708622e+002°)
6.02559586074356e-002	(6.03096691735655e+001dB,1.77613916169887e+002°)
6.16595001861481e-002	(6.03098996534763e+001dB,1.77558374810526e+002°)
6.30957344480192e-002	(6.03101409812908e+001dB,1.77501542418305e+002°)
6.45654229034654e-002	(6.03103936663992e+001dB,1.77443389113406e+002°)
6.60693448007594e-002	(6.03106582434750e+001dB,1.77383884333615e+002°)
6.76082975391980e-002	(6.03109352699694e+001dB,1.77322996819732e+002°)
6.91830970918935e-002	(6.03112253324277e+001dB,1.77260694599845e+002°)
7.07945784384136e-002	(6.03115290421171e+001dB,1.77196944974459e+002°)
7.24435960074988e-002	(6.03118470401265e+001dB,1.77131714500281e+002°)
7.41310241300916e-002	(6.03121799978323e+001dB,1.77064968974374e+002°)
7.58577575029182e-002	(6.03125286172215e+001dB,1.76996673417829e+002°)
7.76247116628690e-002	(6.03128936335236e+001dB,1.76926792059125e+002°)
7.94328234724279e-002	(6.03132758169991e+001dB,1.76855288317235e+002°)
8.12830516164097e-002	(6.03136759723102e+001dB,1.76782124784506e+002°)
8.31763771102669e-002	(6.03140949434778e+001dB,1.76707263209165e+002°)
8.51138038202374e-002	(6.03145336123780e+001dB,1.76630664477622e+002°)
8.70963589956078e-002	(6.03149929036577e+001dB,1.76552288596369e+002°)
8.91250938133743e-002	(6.03154737833662e+001dB,1.76472094673819e+002°)
9.12010839355907e-002	(6.03159772636190e+001dB,1.76390040901765e+002°)
9.33254300796988e-002	(6.03165044038134e+001dB,1.76306084536449e+002°)
9.54992586021433e-002	(6.03170563127973e+001dB,1.76220181879457e+002°)
9.77237220955808e-002	(6.03176341494282e+001dB,1.76132288258652e+002°)
9.99999999999997e-002	(6.03182391286147e+001dB,1.76042358008363e+002°)
1.02329299228075e-001	(6.03188725207736e+001dB,1.75950344449570e+002°)
1.04712854805090e-001	(6.03195356557654e+001dB,1.75856199870007e+002°)
1.07151930523760e-001	(6.03202299240232e+001dB,1.75759875503798e+002°)
1.09647819614318e-001	(6.03209567823859e+001dB,1.75661321510966e+002°)
1.12201845430196e-001	(6.03217177536824e+001dB,1.75560486956962e+002°)
1.14815362149688e-001	(6.03225144317115e+001dB,1.75457319791624e+002°)
1.17489755493953e-001	(6.03233484846617e+001dB,1.75351766828240e+002°)
1.20226443461741e-001	(6.03242216576264e+001dB,1.75243773722445e+002°)
1.23026877081238e-001	(6.03251357758223e+001dB,1.75133284951037e+002°)
1.25892541179416e-001	(6.03260927492245e+001dB,1.75020243790537e+002°)
1.28824955169313e-001	(6.03270945764551e+001dB,1.74904592295649e+002°)
1.31825673855640e-001	(6.03281433468579e+001dB,1.74786271278169e+002°)
1.34896288259165e-001	(6.03292412469739e+001dB,1.74665220285003e+002°)
1.38038426460288e-001	(6.03303905643845e+001dB,1.74541377577013e+002°)
1.41253754462275e-001	(6.03315936903333e+001dB,1.74414680107627e+002°)
1.44543977074592e-001	(6.03328531268925e+001dB,1.74285063501274e+002°)
1.47910838816820e-001	(6.03341714900281e+001dB,1.74152462032419e+002°)
1.51356124843620e-001	(6.03355515163465e+001dB,1.74016808604215e+002°)
1.54881661891248e-001	(6.03369960666196e+001dB,1.73878034728148e+002°)
1.58489319246111e-001	(6.03385081327002e+001dB,1.73736070503161e+002°)
1.62181009735892e-001	(6.03400908426037e+001dB,1.73590844595400e+002°)
1.65958690743755e-001	(6.03417474663300e+001dB,1.73442284218714e+002°)
1.69824365246174e-001	(6.03434814228297e+001dB,1.73290315115221e+002°)
1.73780082874937e-001	(6.03452962857706e+001dB,1.73134861536187e+002°)
1.77827941003892e-001	(6.03471957911411e+001dB,1.72975846224139e+002°)
1.81970085860998e-001	(6.03491838418627e+001dB,1.72813190395344e+002°)
1.86208713666286e-001	(6.03512645185618e+001dB,1.72646813722851e+002°)
1.90546071796324e-001	(6.03534420850164e+001dB,1.72476634320546e+002°)
1.94984459975804e-001	(6.03557209958925e+001dB,1.72302568728469e+002°)
1.99526231496887e-001	(6.03581059048217e+001dB,1.72124531898939e+002°)
2.04173794466952e-001	(6.03606016739901e+001dB,1.71942437183658e+002°)
2.08929613085403e-001	(6.03632133816459e+001dB,1.71756196322638e+002°)
2.13796208950222e-001	(6.03659463322611e+001dB,1.71565719433755e+002°)
2.18776162394954e-001	(6.03688060643763e+001dB,1.71370915005181e+002°)
2.23872113856833e-001	(6.03717983608058e+001dB,1.71171689888042e+002°)
2.29086765276776e-001	(6.03749292601582e+001dB,1.70967949291935e+002°)
2.34422881531991e-001	(6.03782050651181e+001dB,1.70759596782082e+002°)
2.39883291901948e-001	(6.03816323533603e+001dB,1.70546534279232e+002°)
2.45470891568502e-001	(6.03852179895397e+001dB,1.70328662060900e+002°)
2.51188643150957e-001	(6.03889691365356e+001dB,1.70105878765948e+002°)
2.57039578276885e-001	(6.03928932661082e+001dB,1.69878081402460e+002°)
2.63026799189537e-001	(6.03969981710843e+001dB,1.69645165357181e+002°)
2.69153480392690e-001	(6.04012919794938e+001dB,1.69407024409421e+002°)
2.75422870333815e-001	(6.04057831642371e+001dB,1.69163550747899e+002°)
2.81838293126444e-001	(6.04104805588196e+001dB,1.68914634991758e+002°)
2.88403150312659e-001	(6.04153933686894e+001dB,1.68660166214367e+002°)
2.95120922666637e-001	(6.04205311862601e+001dB,1.68400031973197e+002°)
3.01995172040200e-001	(6.04259040042635e+001dB,1.68134118342722e+002°)
3.09029543251358e-001	(6.04315222288939e+001dB,1.67862309952905e+002°)
3.16227766016837e-001	(6.04373966965465e+001dB,1.67584490032351e+002°)
3.23593656929627e-001	(6.04435386865570e+001dB,1.67300540457716e+002°)
3.31131121482590e-001	(6.04499599366594e+001dB,1.67010341807506e+002°)
3.38844156139201e-001	(6.04566726585062e+001dB,1.66713773423828e+002°)
3.46736850452530e-001	(6.04636895514702e+001dB,1.66410713479189e+002°)
3.54813389233574e-001	(6.04710238223657e+001dB,1.66101039050212e+002°)
3.63078054770100e-001	(6.04786891931015e+001dB,1.65784626199846e+002°)
3.71535229097171e-001	(6.04866999248282e+001dB,1.65461350065339e+002°)
3.80189396320559e-001	(6.04950708265863e+001dB,1.65131084955682e+002°)
3.89045144994279e-001	(6.05038172748300e+001dB,1.64793704456468e+002°)
3.98107170553495e-001	(6.05129552273825e+001dB,1.64449081543144e+002°)
4.07380277804111e-001	(6.05225012379073e+001dB,1.64097088705321e+002°)
4.16869383470333e-001	(6.05324724713363e+001dB,1.63737598077674e+002°)
4.26579518801591e-001	(6.05428867189359e+001dB,1.63370481582920e+002°)
4.36515832240164e-001	(6.05537624107886e+001dB,1.62995611083469e+002°)
4.46683592150961e-001	(6.05651186305612e+001dB,1.62612858545430e+002°)
4.57088189614873e-001	(6.05769751277484e+001dB,1.62222096210850e+002°)
4.67735141287196e-001	(6.05893523301187e+001dB,1.61823196783527e+002°)
4.78630092322636e-001	(6.06022713532060e+001dB,1.61416033625248e+002°)
4.89778819368444e-001	(6.06157540146336e+001dB,1.61000480962287e+002°)
5.01187233627270e-001	(6.06298228377579e+001dB,1.60576414107033e+002°)
5.12861383991362e-001	(6.06445010629694e+001dB,1.60143709688681e+002°)
5.24807460249770e-001	(6.06598126527750e+001dB,1.59702245897097e+002°)
5.37031796370250e-001	(6.06757822968339e+001dB,1.59251902739027e+002°)
5.49540873857622e-001	(6.06924354147700e+001dB,1.58792562305720e+002°)
5.62341325190346e-001	(6.07097981571263e+001dB,1.58324109054381e+002°)
5.75439937337154e-001	(6.07278974037761e+001dB,1.57846430098743e+002°)
5.88843655355586e-001	(6.07467607602485e+001dB,1.57359415513598e+002°)
6.02559586074355e-001	(6.07664165527049e+001dB,1.56862958649633e+002°)
6.16595001861479e-001	(6.07868938174453e+001dB,1.56356956459289e+002°)
6.30957344480190e-001	(6.08082222911575e+001dB,1.55841309832030e+002°)
6.45654229034652e-001	(6.08304323935070e+001dB,1.55315923940784e+002°)
6.60693448007592e-001	(6.08535552109039e+001dB,1.54780708594730e+002°)
6.76082975391978e-001	(6.08776224734354e+001dB,1.54235578602262e+002°)
6.91830970918933e-001	(6.09026665284295e+001dB,1.53680454138827e+002°)
7.07945784384134e-001	(6.09287203128725e+001dB,1.53115261120607e+002°)
7.24435960074986e-001	(6.09558173171548e+001dB,1.52539931581206e+002°)
7.41310241300913e-001	(6.09839915477714e+001dB,1.51954404052562e+002°)
7.58577575029179e-001	(6.10132774838484e+001dB,1.51358623944658e+002°)
7.76247116628687e-001	(6.10437100295834e+001dB,1.50752543923851e+002°)
7.94328234724277e-001	(6.10753244621974e+001dB,1.50136124288839e+002°)
8.12830516164095e-001	(6.11081563730484e+001dB,1.49509333339219e+002°)
8.31763771102666e-001	(6.11422416049703e+001dB,1.48872147739045e+002°)
8.51138038202372e-001	(6.11776161857991e+001dB,1.48224552864301e+002°)
8.70963589956076e-001	(6.12143162533972e+001dB,1.47566543142757e+002°)
8.91250938133740e-001	(6.12523779768797e+001dB,1.46898122375332e+002°)
9.12010839355904e-001	(6.12918374746457e+001dB,1.46219304036401e+002°)
9.33254300796986e-001	(6.13327307245654e+001dB,1.45530111555541e+002°)
9.54992586021430e-001	(6.13750934687073e+001dB,1.44830578572856e+002°)
9.77237220955805e-001	(6.14189611167764e+001dB,1.44120749165285e+002°)
9.99999999999994e-001	(6.14643686419601e+001dB,1.43400678042102e+002°)
1.02329299228075e+000	(6.15113504716506e+001dB,1.42670430709999e+002°)
1.04712854805089e+000	(6.15599403763336e+001dB,1.41930083594300e+002°)
1.07151930523760e+000	(6.16101713547035e+001dB,1.41179724126281e+002°)
1.09647819614318e+000	(6.16620755141049e+001dB,1.40419450784102e+002°)
1.12201845430196e+000	(6.17156839476824e+001dB,1.39649373092468e+002°)
1.14815362149688e+000	(6.17710266120221e+001dB,1.38869611570761e+002°)
1.17489755493952e+000	(6.18281321996808e+001dB,1.38080297636293e+002°)
1.20226443461741e+000	(6.18870280137392e+001dB,1.37281573453266e+002°)
1.23026877081237e+000	(6.19477398393791e+001dB,1.36473591732058e+002°)
1.25892541179416e+000	(6.20102918175714e+001dB,1.35656515473751e+002°)
1.28824955169313e+000	(6.20747063180231e+001dB,1.34830517665219e+002°)
1.31825673855640e+000	(6.21410038165462e+001dB,1.33995780915291e+002°)
1.34896288259165e+000	(6.22092027710748e+001dB,1.33152497044773e+002°)
1.38038426460288e+000	(6.22793195047288e+001dB,1.32300866619781e+002°)
1.41253754462275e+000	(6.23513680920099e+001dB,1.31441098437835e+002°)
1.44543977074592e+000	(6.24253602469174e+001dB,1.30573408969341e+002°)
1.47910838816820e+000	(6.25013052222890e+001dB,1.29698021745400e+002°)
1.51356124843620e+000	(6.25792097095178e+001dB,1.28815166715407e+002°)
1.54881661891247e+000	(6.26590777503251e+001dB,1.27925079559554e+002°)
1.58489319246110e+000	(6.27409106515731e+001dB,1.27028000969848e+002°)
1.62181009735892e+000	(6.28247069136651e+001dB,1.26124175902549e+002°)
1.65958690743755e+000	(6.29104621639316e+001dB,1.25213852807027e+002°)
1.69824365246173e+000	(6.29981690992986e+001dB,1.24297282838658e+002°)
1.73780082874936e+000	(6.30878174408920e+001dB,1.23374719055875e+002°)
1.77827941003891e+000	(6.31793938967970e+001dB,1.22446415613308e+002°)
1.81970085860997e+000	(6.32728821374427e+001dB,1.21512626955006e+002°)
1.86208713666286e+000	(6.33682627762452e+001dB,1.20573607014386e+002°)
1.90546071796323e+000	(6.34655133673656e+001dB,1.19629608425672e+002°)
1.94984459975803e+000	(6.35646084087881e+001dB,1.18680881755582e+002°)
1.99526231496887e+000	(6.36655193577976e+001dB,1.17727674759412e+002°)
2.04173794466952e+000	(6.37682146559556e+001dB,1.16770231669302e+002°)
2.08929613085403e+000	(6.38726597647498e+001dB,1.15808792518828e+002°)
2.13796208950222e+000	(6.39788172082166e+001dB,1.14843592511030e+002°)
2.18776162394954e+000	(6.40866466284824e+001dB,1.13874861431355e+002°)
2.23872113856832e+000	(6.41961048463988e+001dB,1.12902823115339e+002°)
2.29086765276776e+000	(6.43071459321351e+001dB,1.11927694971619e+002°)
2.34422881531990e+000	(6.44197212819798e+001dB,1.10949687563041e+002°)
2.39883291901947e+000	(6.45337797033973e+001dB,1.09969004253920e+002°)
2.45470891568501e+000	(6.46492675061666e+001dB,1.08985840915653e+002°)
2.51188643150956e+000	(6.47661285981186e+001dB,1.08000385708248e+002°)
2.57039578276884e+000	(6.48843045871706e+001dB,1.07012818922704e+002°)
2.63026799189536e+000	(6.50037348862328e+001dB,1.06023312897673e+002°)
2.69153480392690e+000	(6.51243568251910e+001dB,1.05032031999043e+002°)
2.75422870333815e+000	(6.52461057634248e+001dB,1.04039132672456e+002°)
2.81838293126443e+000	(6.53689152045276e+001dB,1.03044763563798e+002°)
2.88403150312658e+000	(6.54927169168120e+001dB,1.02049065701184e+002°)
2.95120922666636e+000	(6.56174410529470e+001dB,1.01052172743207e+002°)
3.01995172040199e+000	(6.57430162707050e+001dB,1.00054211288874e+002°)
3.09029543251357e+000	(6.58693698571226e+001dB,9.90553012450140e+001°)
3.16227766016835e+000	(6.59964278520318e+001dB,9.80555562446144e+001°)
3.23593656929626e+000	(6.61241151712354e+001dB,9.70550841227612e+001°)
3.31131121482589e+000	(6.62523557315031e+001dB,9.60539874345465e+001°)
3.38844156139200e+000	(6.63810725756567e+001dB,9.50523640140710e+001°)
3.46736850452529e+000	(6.65101879964366e+001dB,9.40503075758255e+001°)
3.54813389233573e+000	(6.66396236604294e+001dB,9.30479083459210e+001°)
3.63078054770098e+000	(6.67693007344603e+001dB,9.20452537164157e+001°)
3.71535229097170e+000	(6.68991400075709e+001dB,9.10424289319596e+001°)
3.80189396320558e+000	(6.70290620163441e+001dB,9.00395177839616e+001°)
3.89045144994278e+000	(6.71589871679818e+001dB,8.90366033222504e+001°)
3.98107170553494e+000	(6.72888358657215e+001dB,8.80337685662489e+001°)
4.07380277804109e+000	(6.74185286313465e+001dB,8.70310972227077e+001°)
4.16869383470332e+000	(6.75479862294703e+001dB,8.60286743958831e+001°)
4.26579518801589e+000	(6.76771297920537e+001dB,8.50265872845832e+001°)
4.36515832240162e+000	(6.78058809422095e+001dB,8.40249258656556e+001°)
4.46683592150959e+000	(6.79341619184109e+001dB,8.30237835551211e+001°)
4.57088189614871e+000	(6.80618956999413e+001dB,8.20232578384462e+001°)
4.67735141287194e+000	(6.81890061296266e+001dB,8.10234508780578e+001°)
4.78630092322634e+000	(6.83154180409032e+001dB,8.00244700692219e+001°)
4.89778819368442e+000	(6.84410573791309e+001dB,7.90264285728789e+001°)
5.01187233627268e+000	(6.85658513290074e+001dB,7.80294457810725e+001°)
5.12861383991361e+000	(6.86897284353664e+001dB,7.70336477517226e+001°)
5.24807460249768e+000	(6.88126187288545e+001dB,7.60391675711643e+001°)
5.37031796370248e+000	(6.89344538448463e+001dB,7.50461456782764e+001°)
5.49540873857620e+000	(6.90551671465709e+001dB,7.40547301071401e+001°)
5.62341325190344e+000	(6.91746938422969e+001dB,7.30650766816642e+001°)
5.75439937337152e+000	(6.92929711017025e+001dB,7.20773491399222e+001°)
