Freq.	V(v-)	V(vout)
1.00000000000000e-002	(2.12612583217060e+001dB,1.80111213184437e-005°)	(1.19999880928018e+002dB,1.79999999500788e+002°)
1.02329299228075e-002	(2.12612583217060e+001dB,1.84306542311476e-005°)	(1.19999880928018e+002dB,1.79999999489159e+002°)
1.04712854805090e-002	(2.12612583215311e+001dB,1.88599593151885e-005°)	(1.19999880928018e+002dB,1.79999999477260e+002°)
1.07151930523761e-002	(2.12612583215311e+001dB,1.92992642050284e-005°)	(1.19999880928018e+002dB,1.79999999465084e+002°)
1.09647819614318e-002	(2.12612583215311e+001dB,1.97488018164550e-005°)	(1.19999880928018e+002dB,1.79999999452624e+002°)
1.12201845430196e-002	(2.12612583214437e+001dB,2.02088105059319e-005°)	(1.19999880928018e+002dB,1.79999999439874e+002°)
1.14815362149688e-002	(2.12612583217935e+001dB,2.06795341705527e-005°)	(1.19999880928018e+002dB,1.79999999426827e+002°)
1.17489755493953e-002	(2.12612583215312e+001dB,2.11612224028359e-005°)	(1.19999880928018e+002dB,1.79999999413477e+002°)
1.20226443461741e-002	(2.12612583214438e+001dB,2.16541305915888e-005°)	(1.19999880928018e+002dB,1.79999999399815e+002°)
1.23026877081238e-002	(2.12612583214438e+001dB,2.21585200867433e-005°)	(1.19999880928018e+002dB,1.79999999385835e+002°)
1.25892541179417e-002	(2.12612583216188e+001dB,2.26746583266977e-005°)	(1.19999880928018e+002dB,1.79999999371529e+002°)
1.28824955169313e-002	(2.12612583215313e+001dB,2.32028189666646e-005°)	(1.19999880928018e+002dB,1.79999999356890e+002°)
1.31825673855641e-002	(2.12612583217937e+001dB,2.37432820483734e-005°)	(1.19999880928018e+002dB,1.79999999341910e+002°)
1.34896288259165e-002	(2.12612583211816e+001dB,2.42963341398471e-005°)	(1.19999880928018e+002dB,1.79999999326581e+002°)
1.38038426460288e-002	(2.12612583216189e+001dB,2.48622684603580e-005°)	(1.19999880928018e+002dB,1.79999999310895e+002°)
1.41253754462275e-002	(2.12612583212691e+001dB,2.54413850910792e-005°)	(1.19999880928018e+002dB,1.79999999294844e+002°)
1.44543977074593e-002	(2.12612583213566e+001dB,2.60339910736226e-005°)	(1.19999880928018e+002dB,1.79999999278418e+002°)
1.47910838816821e-002	(2.12612583211818e+001dB,2.66404006234363e-005°)	(1.19999880928018e+002dB,1.79999999261611e+002°)
1.51356124843621e-002	(2.12612583214442e+001dB,2.72609352707804e-005°)	(1.19999880928018e+002dB,1.79999999244411e+002°)
1.54881661891248e-002	(2.12612583216191e+001dB,2.78959240270911e-005°)	(1.19999880928018e+002dB,1.79999999226811e+002°)
1.58489319246111e-002	(2.12612583215317e+001dB,2.85457035728019e-005°)	(1.19999880928018e+002dB,1.79999999208802e+002°)
1.62181009735893e-002	(2.12612583214443e+001dB,2.92106184241656e-005°)	(1.19999880928018e+002dB,1.79999999190372e+002°)
1.65958690743756e-002	(2.12612583216193e+001dB,2.98910211293388e-005°)	(1.19999880928018e+002dB,1.79999999171514e+002°)
1.69824365246174e-002	(2.12612583216193e+001dB,3.05872724567872e-005°)	(1.19999880928018e+002dB,1.79999999152216e+002°)
1.73780082874937e-002	(2.12612583216194e+001dB,3.12997415580817e-005°)	(1.19999880928018e+002dB,1.79999999132468e+002°)
1.77827941003892e-002	(2.12612583214445e+001dB,3.20288061989532e-005°)	(1.19999880928018e+002dB,1.79999999112261e+002°)
1.81970085860998e-002	(2.12612583214446e+001dB,3.27748529310829e-005°)	(1.19999880928018e+002dB,1.79999999091583e+002°)
1.86208713666287e-002	(2.12612583217945e+001dB,3.35382773223329e-005°)	(1.19999880928018e+002dB,1.79999999070423e+002°)
1.90546071796325e-002	(2.12612583216196e+001dB,3.43194841572214e-005°)	(1.19999880928018e+002dB,1.79999999048770e+002°)
1.94984459975804e-002	(2.12612583215323e+001dB,3.51188876395008e-005°)	(1.19999880928018e+002dB,1.79999999026613e+002°)
1.99526231496888e-002	(2.12612583213574e+001dB,3.59369116253390e-005°)	(1.19999880928018e+002dB,1.79999999003940e+002°)
2.04173794466953e-002	(2.12612583213575e+001dB,3.67739898297535e-005°)	(1.19999880928018e+002dB,1.79999998980739e+002°)
2.08929613085404e-002	(2.12612583214450e+001dB,3.76305660916750e-005°)	(1.19999880928018e+002dB,1.79999998956997e+002°)
2.13796208950223e-002	(2.12612583213577e+001dB,3.85070945735915e-005°)	(1.19999880928018e+002dB,1.79999998932703e+002°)
2.18776162394955e-002	(2.12612583213578e+001dB,3.94040400269334e-005°)	(1.19999880928018e+002dB,1.79999998907842e+002°)
2.23872113856834e-002	(2.12612583214453e+001dB,4.03218780287132e-005°)	(1.19999880928018e+002dB,1.79999998882403e+002°)
2.29086765276777e-002	(2.12612583216203e+001dB,4.12610952246759e-005°)	(1.19999880928018e+002dB,1.79999998856370e+002°)
2.34422881531992e-002	(2.12612583217079e+001dB,4.22221895942137e-005°)	(1.19999880928018e+002dB,1.79999998829732e+002°)
2.39883291901949e-002	(2.12612583214456e+001dB,4.32056707361009e-005°)	(1.19999880928018e+002dB,1.79999998802473e+002°)
2.45470891568503e-002	(2.12612583213583e+001dB,4.42120600863524e-005°)	(1.19999880928018e+002dB,1.79999998774579e+002°)
2.51188643150958e-002	(2.12612583215333e+001dB,4.52418912564239e-005°)	(1.19999880928018e+002dB,1.79999998746035e+002°)
2.57039578276886e-002	(2.12612583212711e+001dB,4.62957102839881e-005°)	(1.19999880928018e+002dB,1.79999998716826e+002°)
2.63026799189538e-002	(2.12612583217085e+001dB,4.73740759073831e-005°)	(1.19999880928018e+002dB,1.79999998686937e+002°)
2.69153480392691e-002	(2.12612583214463e+001dB,4.84775598947454e-005°)	(1.19999880928018e+002dB,1.79999998656352e+002°)
2.75422870333816e-002	(2.12612583213590e+001dB,4.96067473218303e-005°)	(1.19999880928018e+002dB,1.79999998625055e+002°)
2.81838293126445e-002	(2.12612583217089e+001dB,5.07622369042855e-005°)	(1.19999880928018e+002dB,1.79999998593028e+002°)
2.88403150312660e-002	(2.12612583217091e+001dB,5.19446412933282e-005°)	(1.19999880928018e+002dB,1.79999998560256e+002°)
2.95120922666638e-002	(2.12612583216218e+001dB,5.31545874135099e-005°)	(1.19999880928018e+002dB,1.79999998526720e+002°)
3.01995172040201e-002	(2.12612583214471e+001dB,5.43927168288970e-005°)	(1.19999880928018e+002dB,1.79999998492403e+002°)
3.09029543251359e-002	(2.12612583215347e+001dB,5.56596859527835e-005°)	(1.19999880928018e+002dB,1.79999998457286e+002°)
3.16227766016838e-002	(2.12612583215349e+001dB,5.69561665890434e-005°)	(1.19999880928018e+002dB,1.79999998421352e+002°)
3.23593656929628e-002	(2.12612583214477e+001dB,5.82828461390640e-005°)	(1.19999880928018e+002dB,1.79999998384580e+002°)
3.31131121482591e-002	(2.12612583215353e+001dB,5.96404280201884e-005°)	(1.19999880928018e+002dB,1.79999998346952e+002°)
3.38844156139202e-002	(2.12612583215356e+001dB,6.10296320495296e-005°)	(1.19999880928018e+002dB,1.79999998308448e+002°)
3.46736850452531e-002	(2.12612583213609e+001dB,6.24511947958476e-005°)	(1.19999880928018e+002dB,1.79999998269047e+002°)
3.54813389233575e-002	(2.12612583217109e+001dB,6.39058699974139e-005°)	(1.19999880928018e+002dB,1.79999998228727e+002°)
3.63078054770101e-002	(2.12612583215363e+001dB,6.53944289303198e-005°)	(1.19999880928018e+002dB,1.79999998187469e+002°)
3.71535229097172e-002	(2.12612583214491e+001dB,6.69176608722279e-005°)	(1.19999880928018e+002dB,1.79999998145250e+002°)
3.80189396320561e-002	(2.12612583213619e+001dB,6.84763734254133e-005°)	(1.19999880928018e+002dB,1.79999998102047e+002°)
3.89045144994280e-002	(2.12612583216246e+001dB,7.00713930671475e-005°)	(1.19999880928018e+002dB,1.79999998057838e+002°)
3.98107170553497e-002	(2.12612583215374e+001dB,7.17035654762419e-005°)	(1.19999880928018e+002dB,1.79999998012599e+002°)
4.07380277804112e-002	(2.12612583214503e+001dB,7.33737560752495e-005°)	(1.19999880928018e+002dB,1.79999997966307e+002°)
4.16869383470335e-002	(2.12612583211883e+001dB,7.50828504127621e-005°)	(1.19999880928018e+002dB,1.79999997918936e+002°)
4.26579518801592e-002	(2.12612583215384e+001dB,7.68317546612980e-005°)	(1.19999880928018e+002dB,1.79999997870462e+002°)
4.36515832240165e-002	(2.12612583214514e+001dB,7.86213961301707e-005°)	(1.19999880928018e+002dB,1.79999997820859e+002°)
4.46683592150962e-002	(2.12612583215392e+001dB,8.04527237015015e-005°)	(1.19999880928018e+002dB,1.79999997770100e+002°)
4.57088189614874e-002	(2.12612583214521e+001dB,8.23267083814752e-005°)	(1.19999880928018e+002dB,1.79999997718159e+002°)
4.67735141287197e-002	(2.12612583218898e+001dB,8.42443437527797e-005°)	(1.19999880928018e+002dB,1.79999997665008e+002°)
4.78630092322637e-002	(2.12612583214530e+001dB,8.62066466120339e-005°)	(1.19999880928018e+002dB,1.79999997610619e+002°)
4.89778819368445e-002	(2.12612583214535e+001dB,8.82146573590365e-005°)	(1.19999880928018e+002dB,1.79999997554963e+002°)
5.01187233627271e-002	(2.12612583214540e+001dB,9.02694407001477e-005°)	(1.19999880928018e+002dB,1.79999997498011e+002°)
5.12861383991364e-002	(2.12612583211047e+001dB,9.23720860973205e-005°)	(1.19999880928018e+002dB,1.79999997439732e+002°)
5.24807460249771e-002	(2.12612583213675e+001dB,9.45237083708445e-005°)	(1.19999880928018e+002dB,1.79999997380096e+002°)
5.37031796370252e-002	(2.12612583212807e+001dB,9.67254483983004e-005°)	(1.19999880928018e+002dB,1.79999997319070e+002°)
5.49540873857623e-002	(2.12612583215436e+001dB,9.89784735030464e-005°)	(1.19999880928018e+002dB,1.79999997256624e+002°)
5.62341325190348e-002	(2.12612583215442e+001dB,1.01283978309745e-004°)	(1.19999880928018e+002dB,1.79999997192722e+002°)
5.75439937337156e-002	(2.12612583215448e+001dB,1.03643185239341e-004°)	(1.19999880928018e+002dB,1.79999997127332e+002°)
5.88843655355588e-002	(2.12612583213706e+001dB,1.06057345153262e-004°)	(1.19999880928018e+002dB,1.79999997060419e+002°)
6.02559586074356e-002	(2.12612583216337e+001dB,1.08527738069297e-004°)	(1.19999880928018e+002dB,1.79999996991948e+002°)
6.16595001861481e-002	(2.12612583216344e+001dB,1.11055673843071e-004°)	(1.19999880928018e+002dB,1.79999996921881e+002°)
6.30957344480192e-002	(2.12612583214603e+001dB,1.13642492802651e-004°)	(1.19999880928018e+002dB,1.79999996850182e+002°)
6.45654229034654e-002	(2.12612583212862e+001dB,1.16289566496149e-004°)	(1.19999880928018e+002dB,1.79999996776814e+002°)
6.60693448007594e-002	(2.12612583216368e+001dB,1.18998298480179e-004°)	(1.19999880928018e+002dB,1.79999996701736e+002°)
6.76082975391980e-002	(2.12612583213753e+001dB,1.21770124937228e-004°)	(1.19999880928018e+002dB,1.79999996624910e+002°)
6.91830970918935e-002	(2.12612583217261e+001dB,1.24606515514048e-004°)	(1.19999880928018e+002dB,1.79999996546294e+002°)
7.07945784384136e-002	(2.12612583217270e+001dB,1.27508974101922e-004°)	(1.19999880928018e+002dB,1.79999996465847e+002°)
7.24435960074988e-002	(2.12612583214657e+001dB,1.30479039667522e-004°)	(1.19999880928018e+002dB,1.79999996383526e+002°)
7.41310241300916e-002	(2.12612583216417e+001dB,1.33518286935638e-004°)	(1.19999880928018e+002dB,1.79999996299287e+002°)
7.58577575029182e-002	(2.12612583215553e+001dB,1.36628327361543e-004°)	(1.19999880928018e+002dB,1.79999996213086e+002°)
7.76247116628690e-002	(2.12612583214690e+001dB,1.39810809949309e-004°)	(1.19999880928018e+002dB,1.79999996124878e+002°)
7.94328234724279e-002	(2.12612583216452e+001dB,1.43067422027288e-004°)	(1.19999880928018e+002dB,1.79999996034615e+002°)
8.12830516164097e-002	(2.12612583216464e+001dB,1.46399890395368e-004°)	(1.19999880928018e+002dB,1.79999995942249e+002°)
8.31763771102669e-002	(2.12612583213854e+001dB,1.49809981933175e-004°)	(1.19999880928018e+002dB,1.79999995847732e+002°)
8.51138038202374e-002	(2.12612583213868e+001dB,1.53299504659842e-004°)	(1.19999880928018e+002dB,1.79999995751013e+002°)
8.70963589956078e-002	(2.12612583213883e+001dB,1.56870308867104e-004°)	(1.19999880928018e+002dB,1.79999995652041e+002°)
8.91250938133743e-002	(2.12612583214773e+001dB,1.60524287733650e-004°)	(1.19999880928018e+002dB,1.79999995550764e+002°)
9.12010839355907e-002	(2.12612583214789e+001dB,1.64263378726715e-004°)	(1.19999880928018e+002dB,1.79999995447128e+002°)
9.33254300796988e-002	(2.12612583216555e+001dB,1.68089564354902e-004°)	(1.19999880928018e+002dB,1.79999995341078e+002°)
9.54992586021433e-002	(2.12612583214823e+001dB,1.72004873274120e-004°)	(1.19999880928018e+002dB,1.79999995232558e+002°)
9.77237220955808e-002	(2.12612583216591e+001dB,1.76011381454519e-004°)	(1.19999880928018e+002dB,1.79999995121510e+002°)
9.99999999999997e-002	(2.12612583216610e+001dB,1.80111213187864e-004°)	(1.19999880928018e+002dB,1.79999995007876e+002°)
1.02329299228075e-001	(2.12612583215756e+001dB,1.84306542318959e-004°)	(1.19999880928018e+002dB,1.79999994891594e+002°)
1.04712854805090e-001	(2.12612583214028e+001dB,1.88599593174813e-004°)	(1.19999880928018e+002dB,1.79999994772604e+002°)
1.07151930523760e-001	(2.12612583215799e+001dB,1.92992642031957e-004°)	(1.19999880928018e+002dB,1.79999994650842e+002°)
1.09647819614318e-001	(2.12612583214073e+001dB,1.97488018172153e-004°)	(1.19999880928018e+002dB,1.79999994526244e+002°)
1.12201845430196e-001	(2.12612583215847e+001dB,2.02088105076259e-004°)	(1.19999880928018e+002dB,1.79999994398744e+002°)
1.14815362149688e-001	(2.12612583215872e+001dB,2.06795341697681e-004°)	(1.19999880928018e+002dB,1.79999994268274e+002°)
1.17489755493953e-001	(2.12612583213275e+001dB,2.11612224018394e-004°)	(1.19999880928018e+002dB,1.79999994134765e+002°)
1.20226443461741e-001	(2.12612583215927e+001dB,2.16541305899484e-004°)	(1.19999880928018e+002dB,1.79999993998146e+002°)
1.23026877081238e-001	(2.12612583213332e+001dB,2.21585200881804e-004°)	(1.19999880928018e+002dB,1.79999993858345e+002°)
1.25892541179416e-001	(2.12612583216861e+001dB,2.26746583221794e-004°)	(1.19999880928018e+002dB,1.79999993715288e+002°)
1.28824955169313e-001	(2.12612583215144e+001dB,2.32028189676529e-004°)	(1.19999880928018e+002dB,1.79999993568898e+002°)
1.31825673855640e-001	(2.12612583217801e+001dB,2.37432820473776e-004°)	(1.19999880928018e+002dB,1.79999993419098e+002°)
1.34896288259165e-001	(2.12612583216962e+001dB,2.42963341340788e-004°)	(1.19999880928018e+002dB,1.79999993265809e+002°)
1.38038426460288e-001	(2.12612583214375e+001dB,2.48622684594141e-004°)	(1.19999880928018e+002dB,1.79999993108950e+002°)
1.41253754462275e-001	(2.12612583217912e+001dB,2.54413850836915e-004°)	(1.19999880928017e+002dB,1.79999992948437e+002°)
1.44543977074592e-001	(2.12612583217952e+001dB,2.60339910734970e-004°)	(1.19999880928017e+002dB,1.79999992784185e+002°)
1.47910838816820e-001	(2.12612583214496e+001dB,2.66404006286513e-004°)	(1.19999880928017e+002dB,1.79999992616107e+002°)
1.51356124843620e-001	(2.12612583218038e+001dB,2.72609352726140e-004°)	(1.19999880928017e+002dB,1.79999992444114e+002°)
1.54881661891248e-001	(2.12612583214587e+001dB,2.78959240279355e-004°)	(1.19999880928017e+002dB,1.79999992268115e+002°)
1.58489319246111e-001	(2.12612583212886e+001dB,2.85457035750380e-004°)	(1.19999880928017e+002dB,1.79999992088016e+002°)
1.62181009735892e-001	(2.12612583216435e+001dB,2.92106184209803e-004°)	(1.19999880928017e+002dB,1.79999991903722e+002°)
1.65958690743755e-001	(2.12612583213865e+001dB,2.98910211318145e-004°)	(1.19999880928017e+002dB,1.79999991715136e+002°)
1.69824365246174e-001	(2.12612583213920e+001dB,3.05872724546506e-004°)	(1.19999880928017e+002dB,1.79999991522156e+002°)
1.73780082874937e-001	(2.12612583218351e+001dB,3.12997415554779e-004°)	(1.19999880928017e+002dB,1.79999991324682e+002°)
1.77827941003892e-001	(2.12612583216663e+001dB,3.20288061974202e-004°)	(1.19999880928017e+002dB,1.79999991122608e+002°)
1.81970085860998e-001	(2.12612583217602e+001dB,3.27748529283086e-004°)	(1.19999880928017e+002dB,1.79999990915827e+002°)
1.86208713666286e-001	(2.12612583214171e+001dB,3.35382773327818e-004°)	(1.19999880928017e+002dB,1.79999990704229e+002°)
1.90546071796324e-001	(2.12612583215990e+001dB,3.43194841610269e-004°)	(1.19999880928017e+002dB,1.79999990487703e+002°)
1.94984459975804e-001	(2.12612583215189e+001dB,3.51188876428534e-004°)	(1.19999880928017e+002dB,1.79999990266133e+002°)
1.99526231496887e-001	(2.12612583217015e+001dB,3.59369116201878e-004°)	(1.19999880928017e+002dB,1.79999990039402e+002°)
2.04173794466952e-001	(2.12612583217970e+001dB,3.67739898233016e-004°)	(1.19999880928017e+002dB,1.79999989807390e+002°)
2.08929613085403e-001	(2.12612583217180e+001dB,3.76305660863594e-004°)	(1.19999880928017e+002dB,1.79999989569974e+002°)
2.13796208950222e-001	(2.12612583218142e+001dB,3.85070945700941e-004°)	(1.19999880928017e+002dB,1.79999989327027e+002°)
2.18776162394954e-001	(2.12612583220858e+001dB,3.94040400204171e-004°)	(1.19999880928017e+002dB,1.79999989078422e+002°)
2.23872113856833e-001	(2.12612583216583e+001dB,4.03218780315751e-004°)	(1.19999880928017e+002dB,1.79999988824025e+002°)
2.29086765276776e-001	(2.12612583217559e+001dB,4.12610952155830e-004°)	(1.19999880928017e+002dB,1.79999988563704e+002°)
2.34422881531991e-001	(2.12612583215916e+001dB,4.22221895925168e-004°)	(1.19999880928017e+002dB,1.79999988297318e+002°)
2.39883291901948e-001	(2.12612583215152e+001dB,4.32056707414414e-004°)	(1.19999880928017e+002dB,1.79999988024728e+002°)
2.45470891568502e-001	(2.12612583217892e+001dB,4.42120600876742e-004°)	(1.19999880928017e+002dB,1.79999987745788e+002°)
2.51188643150957e-001	(2.12612583216265e+001dB,4.52418912581645e-004°)	(1.19999880928017e+002dB,1.79999987460350e+002°)
2.57039578276885e-001	(2.12612583216393e+001dB,4.62957102803240e-004°)	(1.19999880928017e+002dB,1.79999987168264e+002°)
2.63026799189537e-001	(2.12612583217401e+001dB,4.73740759095057e-004°)	(1.19999880928017e+002dB,1.79999986869375e+002°)
2.69153480392690e-001	(2.12612583221039e+001dB,4.84775598881270e-004°)	(1.19999880928017e+002dB,1.79999986563523e+002°)
2.75422870333815e-001	(2.12612583218562e+001dB,4.96067473209246e-004°)	(1.19999880928017e+002dB,1.79999986250548e+002°)
2.81838293126444e-001	(2.12612583222213e+001dB,5.07622368984276e-004°)	(1.19999880928017e+002dB,1.79999985930282e+002°)
2.88403150312659e-001	(2.12612583219750e+001dB,5.19446412906818e-004°)	(1.19999880928017e+002dB,1.79999985602556e+002°)
2.95120922666637e-001	(2.12612583218170e+001dB,5.31545874231930e-004°)	(1.19999880928017e+002dB,1.79999985267196e+002°)
3.01995172040200e-001	(2.12612583219220e+001dB,5.43927168183696e-004°)	(1.19999880928017e+002dB,1.79999984924025e+002°)
3.09029543251358e-001	(2.12612583220279e+001dB,5.56596859509299e-004°)	(1.19999880928017e+002dB,1.79999984572861e+002°)
3.16227766016837e-001	(2.12612583216974e+001dB,5.69561665915471e-004°)	(1.19999880928017e+002dB,1.79999984213516e+002°)
3.23593656929627e-001	(2.12612583219800e+001dB,5.82828461303255e-004°)	(1.19999880928017e+002dB,1.79999983845802e+002°)
3.31131121482590e-001	(2.12612583218263e+001dB,5.96404280227777e-004°)	(1.19999880928017e+002dB,1.79999983469522e+002°)
3.38844156139201e-001	(2.12612583215861e+001dB,6.10296320555981e-004°)	(1.19999880928017e+002dB,1.79999983084478e+002°)
3.46736850452530e-001	(2.12612583219591e+001dB,6.24511947967314e-004°)	(1.19999880928017e+002dB,1.79999982690465e+002°)
3.54813389233574e-001	(2.12612583219835e+001dB,6.39058700042024e-004°)	(1.19999880928017e+002dB,1.79999982287274e+002°)
3.63078054770100e-001	(2.12612583219215e+001dB,6.53944289332265e-004°)	(1.19999880928017e+002dB,1.79999981874692e+002°)
3.71535229097171e-001	(2.12612583221230e+001dB,6.69176608579793e-004°)	(1.19999880928017e+002dB,1.79999981452499e+002°)
3.80189396320559e-001	(2.12612583218886e+001dB,6.84763734255157e-004°)	(1.19999880928017e+002dB,1.79999981020472e+002°)
3.89045144994279e-001	(2.12612583220927e+001dB,7.00713930510164e-004°)	(1.19999880928017e+002dB,1.79999980578382e+002°)
3.98107170553495e-001	(2.12612583225606e+001dB,7.17035654626066e-004°)	(1.19999880928017e+002dB,1.79999980125995e+002°)
4.07380277804111e-001	(2.12612583222429e+001dB,7.33737560670190e-004°)	(1.19999880928017e+002dB,1.79999979663070e+002°)
4.16869383470333e-001	(2.12612583221890e+001dB,7.50828504106405e-004°)	(1.19999880928017e+002dB,1.79999979189362e+002°)
4.26579518801591e-001	(2.12612583222241e+001dB,7.68317546610332e-004°)	(1.19999880928017e+002dB,1.79999978704620e+002°)
4.36515832240164e-001	(2.12612583222609e+001dB,7.86213961208843e-004°)	(1.19999880928017e+002dB,1.79999978208586e+002°)
