time,V(vout),I(Iin)
0.000000000000000e+000,3.483278e-003,0.000000e+000
4.571428315257112e-010,3.484248e-003,9.142857e-009
9.142856630514224e-010,3.483885e-003,1.828571e-008
1.371428494577134e-009,3.482188e-003,2.742857e-008
1.828571326102845e-009,3.479157e-003,3.657143e-008
2.285714157628556e-009,3.474792e-003,4.571428e-008
2.742856989154267e-009,3.469093e-003,5.485714e-008
3.199999820679977e-009,3.462060e-003,6.400000e-008
6.399999641359955e-009,3.210794e-003,1.280000e-007
9.378746447029620e-009,2.532318e-003,1.875749e-007
1.221224140358687e-008,1.291504e-003,2.442448e-007
1.476710619511902e-008,-4.407984e-004,2.953421e-007
1.757659153931955e-008,-3.111365e-003,3.515318e-007
2.158321015132278e-008,-8.441224e-003,4.316642e-007
2.834276110370584e-008,-2.178233e-002,5.668552e-007
3.945439247864883e-008,-5.600481e-002,7.890878e-007
5.898564247864882e-008,-1.520906e-001,1.179713e-006
7.851689247864882e-008,-2.901820e-001,1.570338e-006
8.437246504270235e-008,-3.390616e-001,1.687449e-006
9.217989512810705e-008,-4.090254e-001,1.843598e-006
1.000000000000000e-007,-4.843143e-001,2.000000e-006
1.007820104871893e-007,-4.921431e-001,2.000000e-006
1.023460314615679e-007,-5.078892e-001,2.000000e-006
1.054740734103251e-007,-5.398090e-001,2.000000e-006
1.100737761658780e-007,-5.872736e-001,2.000000e-006
1.192731816769839e-007,-6.813979e-001,2.000000e-006
1.376719926991956e-007,-8.575359e-001,2.000000e-006
1.572032426991956e-007,-1.021617e+000,2.000000e-006
1.767344926991956e-007,-1.162347e+000,2.000000e-006
1.962657426991956e-007,-1.282784e+000,2.000000e-006
2.157969926991956e-007,-1.385832e+000,2.000000e-006
2.353282426991956e-007,-1.474002e+000,2.000000e-006
2.548594926991956e-007,-1.549442e+000,2.000000e-006
2.743907426991956e-007,-1.613989e+000,2.000000e-006
2.939219926991956e-007,-1.669217e+000,2.000000e-006
3.134532426991956e-007,-1.716470e+000,2.000000e-006
3.329844926991956e-007,-1.756901e+000,2.000000e-006
3.525157426991956e-007,-1.791494e+000,2.000000e-006
3.720469926991956e-007,-1.821093e+000,2.000000e-006
3.915782426991956e-007,-1.846418e+000,2.000000e-006
4.111094926991956e-007,-1.868086e+000,2.000000e-006
4.306407426991956e-007,-1.886626e+000,2.000000e-006
4.697032426991956e-007,-1.916061e+000,2.000000e-006
5.087657426991957e-007,-1.937610e+000,2.000000e-006
5.478282426991958e-007,-1.953385e+000,2.000000e-006
6.064219926991959e-007,-1.969490e+000,2.000000e-006
6.454844926991960e-007,-1.975870e+000,2.000000e-006
6.845469926991961e-007,-1.981264e+000,2.000000e-006
7.236094926991962e-007,-1.985672e+000,2.000000e-006
7.626719926991964e-007,-1.989095e+000,2.000000e-006
8.017344926991965e-007,-1.991531e+000,2.000000e-006
8.407969926991966e-007,-1.992982e+000,2.000000e-006
8.798594926991966e-007,-1.993447e+000,2.000000e-006
1.038899671270626e-006,-1.994704e+000,2.000000e-006
1.197939849842055e-006,-1.995686e+000,2.000000e-006
1.356980028413484e-006,-1.996395e+000,2.000000e-006
1.516020206984913e-006,-1.996829e+000,2.000000e-006
1.675060385556341e-006,-1.996990e+000,2.000000e-006
1.834100564127771e-006,-1.996877e+000,2.000000e-006
1.993140742699199e-006,-1.996489e+000,2.000000e-006
5.100000000000000e-006,-1.996490e+000,2.000000e-006
5.101231637546752e-006,-1.996489e+000,1.975367e-006
5.102873820942421e-006,-1.996473e+000,1.942524e-006
5.106158187733759e-006,-1.996242e+000,1.876836e-006
5.112726921316435e-006,-1.993893e+000,1.745462e-006
5.125864388481786e-006,-1.976568e+000,1.482712e-006
5.145395638481786e-006,-1.912816e+000,1.092087e-006
5.164926888481786e-006,-1.803500e+000,7.014622e-007
5.180468750000000e-006,-1.687153e+000,3.906250e-007
5.200000000000000e-006,-1.509266e+000,0.000000e+000
5.201953125000000e-006,-1.489564e+000,0.000000e+000
5.205859375000000e-006,-1.449769e+000,0.000000e+000
5.213671875000000e-006,-1.369306e+000,0.000000e+000
5.229296875000001e-006,-1.213867e+000,0.000000e+000
5.248828125000001e-006,-1.039215e+000,0.000000e+000
5.268359375000001e-006,-8.887441e-001,0.000000e+000
5.287890625000001e-006,-7.599263e-001,0.000000e+000
5.307421875000001e-006,-6.497005e-001,0.000000e+000
5.326953125000001e-006,-5.553907e-001,0.000000e+000
5.346484375000001e-006,-4.746968e-001,0.000000e+000
5.366015625000001e-006,-4.056547e-001,0.000000e+000
5.385546875000001e-006,-3.465808e-001,0.000000e+000
5.405078125000001e-006,-2.960367e-001,0.000000e+000
5.424609375000001e-006,-2.527901e-001,0.000000e+000
5.444140625000001e-006,-2.157880e-001,0.000000e+000
5.463671875000001e-006,-1.841282e-001,0.000000e+000
5.483203125000001e-006,-1.570398e-001,0.000000e+000
5.502734375000001e-006,-1.338625e-001,0.000000e+000
5.522265625000002e-006,-1.140317e-001,0.000000e+000
5.541796875000002e-006,-9.706417e-002,0.000000e+000
5.561328125000002e-006,-8.254653e-002,0.000000e+000
5.580859375000002e-006,-7.012501e-002,0.000000e+000
5.600390625000002e-006,-5.949699e-002,0.000000e+000
5.619921875000002e-006,-5.040349e-002,0.000000e+000
5.639453125000002e-006,-4.262297e-002,0.000000e+000
5.658984375000002e-006,-3.596584e-002,0.000000e+000
5.678515625000002e-006,-3.026991e-002,0.000000e+000
5.698046875000002e-006,-2.539639e-002,0.000000e+000
5.717578125000002e-006,-2.122654e-002,0.000000e+000
5.737109375000002e-006,-1.765875e-002,0.000000e+000
5.756640625000002e-006,-1.460610e-002,0.000000e+000
5.776171875000002e-006,-1.199421e-002,0.000000e+000
5.795703125000002e-006,-9.759438e-003,0.000000e+000
5.815234375000002e-006,-7.847337e-003,0.000000e+000
5.834765625000002e-006,-6.211315e-003,0.000000e+000
5.854296875000002e-006,-4.811513e-003,0.000000e+000
5.873828125000002e-006,-3.613821e-003,0.000000e+000
5.893359375000002e-006,-2.589060e-003,0.000000e+000
5.912890625000003e-006,-1.712258e-003,0.000000e+000
5.932421875000003e-006,-9.620557e-004,0.000000e+000
5.951953125000003e-006,-3.201706e-004,0.000000e+000
5.971484375000003e-006,2.290340e-004,0.000000e+000
5.991015625000003e-006,6.989425e-004,0.000000e+000
6.010546875000003e-006,1.101001e-003,0.000000e+000
6.030078125000003e-006,1.445010e-003,0.000000e+000
6.049609375000003e-006,1.739347e-003,0.000000e+000
6.069140625000003e-006,1.991187e-003,0.000000e+000
6.088671875000003e-006,2.206664e-003,0.000000e+000
6.127734375000003e-006,2.548775e-003,0.000000e+000
6.166796875000003e-006,2.799226e-003,0.000000e+000
6.225390625000003e-006,3.054909e-003,0.000000e+000
6.267243303571432e-006,3.160913e-003,0.000000e+000
6.309095982142861e-006,3.250026e-003,0.000000e+000
6.350948660714290e-006,3.322247e-003,0.000000e+000
6.392801339285719e-006,3.377576e-003,0.000000e+000
6.434654017857147e-006,3.416013e-003,0.000000e+000
6.476506696428575e-006,3.437559e-003,0.000000e+000
6.518359375000004e-006,3.442213e-003,0.000000e+000
6.775055803571429e-006,3.460123e-003,0.000000e+000
7.031752232142854e-006,3.474027e-003,0.000000e+000
7.288448660714280e-006,3.483926e-003,0.000000e+000
7.545145089285705e-006,3.489819e-003,0.000000e+000
7.801841517857129e-006,3.491708e-003,0.000000e+000
8.058537946428554e-006,3.489590e-003,0.000000e+000
8.315234374999979e-006,3.483468e-003,0.000000e+000
1.000000000000000e-005,3.483416e-003,0.000000e+000
1.000093749999998e-005,3.480592e-003,1.875000e-008
1.000281249999995e-005,3.458639e-003,5.625000e-008
1.000656249999987e-005,3.147283e-003,1.312500e-007
1.001129676043532e-005,1.685284e-003,2.259352e-007
1.001563770244816e-005,-1.265900e-003,3.127541e-007
1.002060057806660e-005,-7.044675e-003,4.120116e-007
1.002607530952340e-005,-1.674760e-002,5.215062e-007
1.003534122576278e-005,-4.160297e-002,7.068245e-007
1.005252716749684e-005,-1.154825e-001,1.050543e-006
1.007205841749684e-005,-2.402836e-001,1.441168e-006
1.008046875000000e-005,-3.063062e-001,1.609375e-006
1.008915766002534e-005,-3.814910e-001,1.783153e-006
1.009554275964528e-005,-4.409748e-001,1.910855e-006
1.010000000000000e-005,-4.845109e-001,2.000000e-006
1.010133717210642e-005,-4.978925e-001,2.000000e-006
1.010312006824830e-005,-5.159240e-001,2.000000e-006
1.010668586053208e-005,-5.524639e-001,2.000000e-006
1.011381744509963e-005,-6.260066e-001,2.000000e-006
1.012808061423473e-005,-7.682823e-001,2.000000e-006
1.014761186423473e-005,-9.442618e-001,2.000000e-006
1.016714311423473e-005,-1.096090e+000,2.000000e-006
1.018667436423472e-005,-1.226087e+000,2.000000e-006
1.020620561423472e-005,-1.337322e+000,2.000000e-006
1.022573686423472e-005,-1.432496e+000,2.000000e-006
1.024526811423472e-005,-1.513929e+000,2.000000e-006
1.026479936423472e-005,-1.583603e+000,2.000000e-006
1.028433061423472e-005,-1.643218e+000,2.000000e-006
1.030386186423472e-005,-1.694226e+000,2.000000e-006
1.032339311423472e-005,-1.737868e+000,2.000000e-006
1.034292436423472e-005,-1.775209e+000,2.000000e-006
1.036245561423472e-005,-1.807159e+000,2.000000e-006
1.038198686423472e-005,-1.834496e+000,2.000000e-006
1.040151811423472e-005,-1.857885e+000,2.000000e-006
1.042104936423471e-005,-1.877898e+000,2.000000e-006
1.044058061423471e-005,-1.895021e+000,2.000000e-006
1.047964311423471e-005,-1.922207e+000,2.000000e-006
1.051870561423471e-005,-1.942109e+000,2.000000e-006
1.055776811423471e-005,-1.956679e+000,2.000000e-006
1.061636186423471e-005,-1.971553e+000,2.000000e-006
1.065821454280613e-005,-1.977720e+000,2.000000e-006
1.070006722137756e-005,-1.982904e+000,2.000000e-006
1.074191989994899e-005,-1.987106e+000,2.000000e-006
1.078377257852041e-005,-1.990325e+000,2.000000e-006
1.082562525709184e-005,-1.992561e+000,2.000000e-006
1.086747793566327e-005,-1.993814e+000,2.000000e-006
1.090933061423469e-005,-1.994085e+000,2.000000e-006
1.111580382852040e-005,-1.995110e+000,2.000000e-006
1.132227704280611e-005,-1.995908e+000,2.000000e-006
1.152875025709181e-005,-1.996478e+000,2.000000e-006
1.173522347137752e-005,-1.996822e+000,2.000000e-006
1.194169668566322e-005,-1.996938e+000,2.000000e-006
1.214816989994893e-005,-1.996827e+000,2.000000e-006
1.235464311423464e-005,-1.996490e+000,2.000000e-006
1.510000000000000e-005,-1.996490e+000,2.000000e-006
1.510195312500000e-005,-1.996448e+000,1.960937e-006
1.510585937500000e-005,-1.996161e+000,1.882813e-006
1.511367187500000e-005,-1.993018e+000,1.726562e-006
1.512929687500000e-005,-1.968473e+000,1.414062e-006
1.514882812500000e-005,-1.896621e+000,1.023437e-006
1.516835937500000e-005,-1.779779e+000,6.328125e-007
1.518046875000000e-005,-1.686971e+000,3.906250e-007
1.520000000000000e-005,-1.509111e+000,1.905824e-020
1.520195312500000e-005,-1.489410e+000,0.000000e+000
1.520585937500000e-005,-1.449620e+000,0.000000e+000
1.521367187500000e-005,-1.369166e+000,0.000000e+000
1.522929687500000e-005,-1.213744e+000,0.000000e+000
1.524882812500000e-005,-1.039109e+000,0.000000e+000
1.526835937500000e-005,-8.886536e-001,0.000000e+000
1.528789062500000e-005,-7.598488e-001,0.000000e+000
1.530742187500000e-005,-6.496342e-001,0.000000e+000
1.532695312500000e-005,-5.553340e-001,0.000000e+000
1.534648437499999e-005,-4.746483e-001,0.000000e+000
1.536601562499999e-005,-4.056132e-001,0.000000e+000
1.538554687499999e-005,-3.465453e-001,0.000000e+000
1.540507812499999e-005,-2.960063e-001,0.000000e+000
1.542460937499999e-005,-2.527641e-001,0.000000e+000
1.544414062499999e-005,-2.157657e-001,0.000000e+000
1.546367187499999e-005,-1.841092e-001,0.000000e+000
1.548320312499999e-005,-1.570235e-001,0.000000e+000
1.550273437499999e-005,-1.338485e-001,0.000000e+000
1.552226562499999e-005,-1.140198e-001,0.000000e+000
1.554179687499999e-005,-9.705394e-002,0.000000e+000
1.556132812499999e-005,-8.253776e-002,0.000000e+000
1.558085937499999e-005,-7.011750e-002,0.000000e+000
1.560039062499998e-005,-5.949055e-002,0.000000e+000
1.561992187499998e-005,-5.039798e-002,0.000000e+000
1.563945312499998e-005,-4.261825e-002,0.000000e+000
1.565898437499998e-005,-3.596180e-002,0.000000e+000
1.567851562499998e-005,-3.026644e-002,0.000000e+000
1.569804687499998e-005,-2.539342e-002,0.000000e+000
1.571757812499998e-005,-2.122398e-002,0.000000e+000
1.573710937499998e-005,-1.765656e-002,0.000000e+000
1.575664062499998e-005,-1.460422e-002,0.000000e+000
1.577617187499998e-005,-1.199259e-002,0.000000e+000
1.579570312499998e-005,-9.758050e-003,0.000000e+000
1.581523437499998e-005,-7.846142e-003,0.000000e+000
1.583476562499997e-005,-6.210287e-003,0.000000e+000
1.585429687499997e-005,-4.810626e-003,0.000000e+000
1.587382812499997e-005,-3.613056e-003,0.000000e+000
1.589335937499997e-005,-2.588398e-003,0.000000e+000
1.591289062499997e-005,-1.711686e-003,0.000000e+000
1.593242187499997e-005,-9.615598e-004,0.000000e+000
1.595195312499997e-005,-3.197400e-004,0.000000e+000
1.597148437499997e-005,2.294088e-004,0.000000e+000
1.599101562499997e-005,6.992694e-004,0.000000e+000
1.601054687499997e-005,1.101288e-003,0.000000e+000
1.603007812499997e-005,1.445261e-003,0.000000e+000
1.604960937499997e-005,1.739568e-003,0.000000e+000
1.606914062499997e-005,1.991383e-003,0.000000e+000
1.608867187499996e-005,2.206838e-003,0.000000e+000
1.612773437499996e-005,2.548913e-003,0.000000e+000
1.616679687499996e-005,2.799338e-003,0.000000e+000
1.622539062499996e-005,3.054995e-003,0.000000e+000
1.626724330357138e-005,3.160988e-003,0.000000e+000
1.630909598214281e-005,3.250092e-003,0.000000e+000
1.635094866071424e-005,3.322305e-003,0.000000e+000
1.639280133928567e-005,3.377628e-003,0.000000e+000
1.643465401785709e-005,3.416061e-003,0.000000e+000
1.647650669642852e-005,3.437605e-003,0.000000e+000
1.651835937499995e-005,3.442258e-003,0.000000e+000
1.677505580357136e-005,3.460164e-003,0.000000e+000
1.703175223214278e-005,3.474065e-003,0.000000e+000
1.728844866071420e-005,3.483961e-003,0.000000e+000
1.754514508928562e-005,3.489852e-003,0.000000e+000
1.780184151785704e-005,3.491738e-003,0.000000e+000
1.805853794642846e-005,3.489620e-003,0.000000e+000
1.831523437499987e-005,3.483497e-003,0.000000e+000
1.860820312499986e-005,3.483485e-003,0.000000e+000
1.999062500000040e-005,3.483437e-003,0.000000e+000
2.000000000000000e-005,3.483437e-003,0.000000e+000
