Freq.	V(vout)
1.00000000000000e-002	(9.48936024385948e+001dB,1.79999991878887e+002°)
1.02329299228075e-002	(9.48936024385944e+001dB,1.79999991689722e+002°)
1.04712854805090e-002	(9.48936024385939e+001dB,1.79999991496151e+002°)
1.07151930523761e-002	(9.48936024385935e+001dB,1.79999991298071e+002°)
1.09647819614318e-002	(9.48936024385930e+001dB,1.79999991095377e+002°)
1.12201845430196e-002	(9.48936024385925e+001dB,1.79999990887962e+002°)
1.14815362149688e-002	(9.48936024385919e+001dB,1.79999990675715e+002°)
1.17489755493953e-002	(9.48936024385914e+001dB,1.79999990458525e+002°)
1.20226443461741e-002	(9.48936024385908e+001dB,1.79999990236275e+002°)
1.23026877081238e-002	(9.48936024385901e+001dB,1.79999990008849e+002°)
1.25892541179417e-002	(9.48936024385895e+001dB,1.79999989776125e+002°)
1.28824955169313e-002	(9.48936024385888e+001dB,1.79999989537980e+002°)
1.31825673855641e-002	(9.48936024385881e+001dB,1.79999989294289e+002°)
1.34896288259165e-002	(9.48936024385874e+001dB,1.79999989044920e+002°)
1.38038426460288e-002	(9.48936024385866e+001dB,1.79999988789744e+002°)
1.41253754462275e-002	(9.48936024385858e+001dB,1.79999988528623e+002°)
1.44543977074593e-002	(9.48936024385849e+001dB,1.79999988261421e+002°)
1.47910838816821e-002	(9.48936024385841e+001dB,1.79999987987994e+002°)
1.51356124843621e-002	(9.48936024385831e+001dB,1.79999987708199e+002°)
1.54881661891248e-002	(9.48936024385821e+001dB,1.79999987421886e+002°)
1.58489319246111e-002	(9.48936024385811e+001dB,1.79999987128904e+002°)
1.62181009735893e-002	(9.48936024385800e+001dB,1.79999986829097e+002°)
1.65958690743756e-002	(9.48936024385789e+001dB,1.79999986522308e+002°)
1.69824365246174e-002	(9.48936024385777e+001dB,1.79999986208372e+002°)
1.73780082874937e-002	(9.48936024385765e+001dB,1.79999985887124e+002°)
1.77827941003892e-002	(9.48936024385752e+001dB,1.79999985558393e+002°)
1.81970085860998e-002	(9.48936024385738e+001dB,1.79999985222004e+002°)
1.86208713666287e-002	(9.48936024385724e+001dB,1.79999984877781e+002°)
1.90546071796325e-002	(9.48936024385709e+001dB,1.79999984525539e+002°)
1.94984459975804e-002	(9.48936024385694e+001dB,1.79999984165092e+002°)
1.99526231496888e-002	(9.48936024385678e+001dB,1.79999983796250e+002°)
2.04173794466953e-002	(9.48936024385661e+001dB,1.79999983418816e+002°)
2.08929613085404e-002	(9.48936024385643e+001dB,1.79999983032591e+002°)
2.13796208950223e-002	(9.48936024385624e+001dB,1.79999982637369e+002°)
2.18776162394955e-002	(9.48936024385605e+001dB,1.79999982232941e+002°)
2.23872113856834e-002	(9.48936024385584e+001dB,1.79999981819093e+002°)
2.29086765276777e-002	(9.48936024385563e+001dB,1.79999981395606e+002°)
2.34422881531992e-002	(9.48936024385540e+001dB,1.79999980962254e+002°)
2.39883291901949e-002	(9.48936024385517e+001dB,1.79999980518808e+002°)
2.45470891568503e-002	(9.48936024385492e+001dB,1.79999980065032e+002°)
2.51188643150958e-002	(9.48936024385466e+001dB,1.79999979600687e+002°)
2.57039578276886e-002	(9.48936024385440e+001dB,1.79999979125526e+002°)
2.63026799189538e-002	(9.48936024385411e+001dB,1.79999978639297e+002°)
2.69153480392691e-002	(9.48936024385382e+001dB,1.79999978141743e+002°)
2.75422870333816e-002	(9.48936024385351e+001dB,1.79999977632598e+002°)
2.81838293126445e-002	(9.48936024385318e+001dB,1.79999977111595e+002°)
2.88403150312660e-002	(9.48936024385284e+001dB,1.79999976578455e+002°)
2.95120922666638e-002	(9.48936024385249e+001dB,1.79999976032897e+002°)
3.01995172040201e-002	(9.48936024385212e+001dB,1.79999975474632e+002°)
3.09029543251359e-002	(9.48936024385173e+001dB,1.79999974903363e+002°)
3.16227766016838e-002	(9.48936024385132e+001dB,1.79999974318787e+002°)
3.23593656929628e-002	(9.48936024385089e+001dB,1.79999973720595e+002°)
3.31131121482591e-002	(9.48936024385044e+001dB,1.79999973108469e+002°)
3.38844156139202e-002	(9.48936024384997e+001dB,1.79999972482084e+002°)
3.46736850452531e-002	(9.48936024384948e+001dB,1.79999971841110e+002°)
3.54813389233575e-002	(9.48936024384897e+001dB,1.79999971185205e+002°)
3.63078054770101e-002	(9.48936024384843e+001dB,1.79999970514022e+002°)
3.71535229097172e-002	(9.48936024384787e+001dB,1.79999969827205e+002°)
3.80189396320561e-002	(9.48936024384727e+001dB,1.79999969124391e+002°)
3.89045144994280e-002	(9.48936024384666e+001dB,1.79999968405205e+002°)
3.98107170553497e-002	(9.48936024384601e+001dB,1.79999967669268e+002°)
4.07380277804112e-002	(9.48936024384533e+001dB,1.79999966916189e+002°)
4.16869383470335e-002	(9.48936024384462e+001dB,1.79999966145568e+002°)
4.26579518801592e-002	(9.48936024384388e+001dB,1.79999965356997e+002°)
4.36515832240165e-002	(9.48936024384310e+001dB,1.79999964550057e+002°)
4.46683592150962e-002	(9.48936024384229e+001dB,1.79999963724322e+002°)
4.57088189614874e-002	(9.48936024384143e+001dB,1.79999962879353e+002°)
4.67735141287197e-002	(9.48936024384054e+001dB,1.79999962014702e+002°)
4.78630092322637e-002	(9.48936024383961e+001dB,1.79999961129911e+002°)
4.89778819368445e-002	(9.48936024383863e+001dB,1.79999960224510e+002°)
5.01187233627271e-002	(9.48936024383760e+001dB,1.79999959298020e+002°)
5.12861383991364e-002	(9.48936024383653e+001dB,1.79999958349949e+002°)
5.24807460249771e-002	(9.48936024383540e+001dB,1.79999957379795e+002°)
5.37031796370252e-002	(9.48936024383423e+001dB,1.79999956387043e+002°)
5.49540873857623e-002	(9.48936024383299e+001dB,1.79999955371166e+002°)
5.62341325190348e-002	(9.48936024383170e+001dB,1.79999954331627e+002°)
5.75439937337156e-002	(9.48936024383035e+001dB,1.79999953267874e+002°)
5.88843655355588e-002	(9.48936024382893e+001dB,1.79999952179343e+002°)
6.02559586074356e-002	(9.48936024382745e+001dB,1.79999951065457e+002°)
6.16595001861481e-002	(9.48936024382590e+001dB,1.79999949925625e+002°)
6.30957344480192e-002	(9.48936024382427e+001dB,1.79999948759243e+002°)
6.45654229034654e-002	(9.48936024382257e+001dB,1.79999947565693e+002°)
6.60693448007594e-002	(9.48936024382079e+001dB,1.79999946344341e+002°)
6.76082975391980e-002	(9.48936024381892e+001dB,1.79999945094540e+002°)
6.91830970918935e-002	(9.48936024381697e+001dB,1.79999943815627e+002°)
7.07945784384136e-002	(9.48936024381492e+001dB,1.79999942506925e+002°)
7.24435960074988e-002	(9.48936024381243e+001dB,1.79999941167740e+002°)
7.41310241300916e-002	(9.48936024381019e+001dB,1.79999939797360e+002°)
7.58577575029182e-002	(9.48936024380784e+001dB,1.79999938395061e+002°)
7.76247116628690e-002	(9.48936024380538e+001dB,1.79999936960097e+002°)
7.94328234724279e-002	(9.48936024380280e+001dB,1.79999935491709e+002°)
8.12830516164097e-002	(9.48936024380011e+001dB,1.79999933989118e+002°)
8.31763771102669e-002	(9.48936024379728e+001dB,1.79999932451527e+002°)
8.51138038202374e-002	(9.48936024379432e+001dB,1.79999930878121e+002°)
8.70963589956078e-002	(9.48936024379123e+001dB,1.79999929268066e+002°)
8.91250938133743e-002	(9.48936024378798e+001dB,1.79999927620507e+002°)
9.12010839355907e-002	(9.48936024378459e+001dB,1.79999925934572e+002°)
9.33254300796988e-002	(9.48936024378103e+001dB,1.79999924209367e+002°)
9.54992586021433e-002	(9.48936024377731e+001dB,1.79999922443976e+002°)
9.77237220955808e-002	(9.48936024377341e+001dB,1.79999920637465e+002°)
9.99999999999997e-002	(9.48936024376932e+001dB,1.79999918788874e+002°)
1.02329299228075e-001	(9.48936024376505e+001dB,1.79999916897223e+002°)
1.04712854805090e-001	(9.48936024376057e+001dB,1.79999914961511e+002°)
1.07151930523760e-001	(9.48936024375589e+001dB,1.79999912980710e+002°)
1.09647819614318e-001	(9.48936024375098e+001dB,1.79999910953771e+002°)
1.12201845430196e-001	(9.48936024374584e+001dB,1.79999908879618e+002°)
1.14815362149688e-001	(9.48936024374046e+001dB,1.79999906757151e+002°)
1.17489755493953e-001	(9.48936024373482e+001dB,1.79999904585246e+002°)
1.20226443461741e-001	(9.48936024372892e+001dB,1.79999902362751e+002°)
1.23026877081238e-001	(9.48936024372274e+001dB,1.79999900088488e+002°)
1.25892541179416e-001	(9.48936024371592e+001dB,1.79999897761250e+002°)
1.28824955169313e-001	(9.48936024370914e+001dB,1.79999895379803e+002°)
1.31825673855640e-001	(9.48936024370205e+001dB,1.79999892942886e+002°)
1.34896288259165e-001	(9.48936024369462e+001dB,1.79999890449205e+002°)
1.38038426460288e-001	(9.48936024368684e+001dB,1.79999887897440e+002°)
1.41253754462275e-001	(9.48936024367869e+001dB,1.79999885286236e+002°)
1.44543977074592e-001	(9.48936024367016e+001dB,1.79999882614209e+002°)
1.47910838816820e-001	(9.48936024366123e+001dB,1.79999879879943e+002°)
1.51356124843620e-001	(9.48936024365188e+001dB,1.79999877081987e+002°)
1.54881661891248e-001	(9.48936024364208e+001dB,1.79999874218859e+002°)
1.58489319246111e-001	(9.48936024363182e+001dB,1.79999871289040e+002°)
1.62181009735892e-001	(9.48936024362074e+001dB,1.79999868290976e+002°)
1.65958690743755e-001	(9.48936024360949e+001dB,1.79999865223079e+002°)
1.69824365246174e-001	(9.48936024359772e+001dB,1.79999862083722e+002°)
1.73780082874937e-001	(9.48936024358539e+001dB,1.79999858871239e+002°)
1.77827941003892e-001	(9.48936024357248e+001dB,1.79999855583928e+002°)
1.81970085860998e-001	(9.48936024355896e+001dB,1.79999852220045e+002°)
1.86208713666286e-001	(9.48936024354480e+001dB,1.79999848777808e+002°)
1.90546071796324e-001	(9.48936024352998e+001dB,1.79999845255391e+002°)
1.94984459975804e-001	(9.48936024351411e+001dB,1.79999841650926e+002°)
1.99526231496887e-001	(9.48936024349785e+001dB,1.79999837962503e+002°)
2.04173794466952e-001	(9.48936024348083e+001dB,1.79999834188165e+002°)
2.08929613085403e-001	(9.48936024346301e+001dB,1.79999830325911e+002°)
2.13796208950222e-001	(9.48936024344435e+001dB,1.79999826373694e+002°)
2.18776162394954e-001	(9.48936024342446e+001dB,1.79999822329418e+002°)
2.23872113856833e-001	(9.48936024340399e+001dB,1.79999818190939e+002°)
2.29086765276776e-001	(9.48936024338257e+001dB,1.79999813956062e+002°)
2.34422881531991e-001	(9.48936024336013e+001dB,1.79999809622542e+002°)
2.39883291901948e-001	(9.48936024333629e+001dB,1.79999805188082e+002°)
2.45470891568502e-001	(9.48936024331169e+001dB,1.79999800650330e+002°)
2.51188643150957e-001	(9.48936024328593e+001dB,1.79999796006880e+002°)
2.57039578276885e-001	(9.48936024325895e+001dB,1.79999791255270e+002°)
2.63026799189537e-001	(9.48936024323036e+001dB,1.79999786392981e+002°)
2.69153480392690e-001	(9.48936024320078e+001dB,1.79999781417435e+002°)
2.75422870333815e-001	(9.48936024316981e+001dB,1.79999776325993e+002°)
2.81838293126444e-001	(9.48936024313703e+001dB,1.79999771115956e+002°)
2.88403150312659e-001	(9.48936024310307e+001dB,1.79999765784563e+002°)
2.95120922666637e-001	(9.48936024306751e+001dB,1.79999760328985e+002°)
3.01995172040200e-001	(9.48936024302992e+001dB,1.79999754746330e+002°)
3.09029543251358e-001	(9.48936024299093e+001dB,1.79999749033639e+002°)
3.16227766016837e-001	(9.48936024294976e+001dB,1.79999743187882e+002°)
3.23593656929627e-001	(9.48936024290700e+001dB,1.79999737205960e+002°)
3.31131121482590e-001	(9.48936024286189e+001dB,1.79999731084701e+002°)
3.38844156139201e-001	(9.48936024281501e+001dB,1.79999724820860e+002°)
3.46736850452530e-001	(9.48936024276558e+001dB,1.79999718411116e+002°)
3.54813389233574e-001	(9.48936024271418e+001dB,1.79999711852069e+002°)
3.63078054770100e-001	(9.48936024266001e+001dB,1.79999705140242e+002°)
3.71535229097171e-001	(9.48936024260365e+001dB,1.79999698272077e+002°)
3.80189396320559e-001	(9.48936024254428e+001dB,1.79999691243932e+002°)
3.89045144994279e-001	(9.48936024248214e+001dB,1.79999684052081e+002°)
3.98107170553495e-001	(9.48936024241743e+001dB,1.79999676692710e+002°)
4.07380277804111e-001	(9.48936024234932e+001dB,1.79999669161917e+002°)
4.16869383470333e-001	(9.48936024227802e+001dB,1.79999661455709e+002°)
4.26579518801591e-001	(9.48936024220373e+001dB,1.79999653570001e+002°)
4.36515832240164e-001	(9.48936024212558e+001dB,1.79999645500612e+002°)
4.46683592150961e-001	(9.48936024204377e+001dB,1.79999637243262e+002°)
4.57088189614873e-001	(9.48936024195812e+001dB,1.79999628793574e+002°)
4.67735141287196e-001	(9.48936024186845e+001dB,1.79999620147068e+002°)
4.78630092322636e-001	(9.48936024177457e+001dB,1.79999611299159e+002°)
4.89778819368444e-001	(9.48936024167628e+001dB,1.79999602245155e+002°)
5.01187233627270e-001	(9.48936024157337e+001dB,1.79999592980258e+002°)
5.12861383991362e-001	(9.48936024146564e+001dB,1.79999583499553e+002°)
5.24807460249770e-001	(9.48936024135284e+001dB,1.79999573798014e+002°)
5.37031796370250e-001	(9.48936024123439e+001dB,1.79999563870498e+002°)
5.49540873857622e-001	(9.48936024111074e+001dB,1.79999553711740e+002°)
5.62341325190346e-001	(9.48936024098128e+001dB,1.79999543316354e+002°)
5.75439937337154e-001	(9.48936024084539e+001dB,1.79999532678830e+002°)
5.88843655355586e-001	(9.48936024070347e+001dB,1.79999521793526e+002°)
6.02559586074355e-001	(9.48936024055454e+001dB,1.79999510654670e+002°)
6.16595001861479e-001	(9.48936024039862e+001dB,1.79999499256358e+002°)
6.30957344480190e-001	(9.48936024023573e+001dB,1.79999487592546e+002°)
6.45654229034652e-001	(9.48936024006483e+001dB,1.79999475657048e+002°)
6.60693448007592e-001	(9.48936023988591e+001dB,1.79999463443538e+002°)
6.76082975391978e-001	(9.48936023969859e+001dB,1.79999450945539e+002°)
6.91830970918933e-001	(9.48936023950248e+001dB,1.79999438156424e+002°)
7.07945784384134e-001	(9.48936023929716e+001dB,1.79999425069413e+002°)
7.24435960074986e-001	(9.48936023908219e+001dB,1.79999411677568e+002°)
7.41310241300913e-001	(9.48936023885678e+001dB,1.79999397973786e+002°)
7.58577575029179e-001	(9.48936023862114e+001dB,1.79999383950803e+002°)
7.76247116628687e-001	(9.48936023837408e+001dB,1.79999369601184e+002°)
7.94328234724277e-001	(9.48936023811542e+001dB,1.79999354917319e+002°)
8.12830516164095e-001	(9.48936023784497e+001dB,1.79999339891424e+002°)
8.31763771102666e-001	(9.48936023756146e+001dB,1.79999324515532e+002°)
8.51138038202372e-001	(9.48936023726430e+001dB,1.79999308781490e+002°)
8.70963589956076e-001	(9.48936023695354e+001dB,1.79999292680957e+002°)
8.91250938133740e-001	(9.48936023662818e+001dB,1.79999276205394e+002°)
9.12010839355904e-001	(9.48936023628719e+001dB,1.79999259346068e+002°)
9.33254300796986e-001	(9.48936023593020e+001dB,1.79999242094038e+002°)
9.54992586021430e-001	(9.48936023555645e+001dB,1.79999224440158e+002°)
9.77237220955805e-001	(9.48936023516514e+001dB,1.79999206375068e+002°)
9.99999999999994e-001	(9.48936023475547e+001dB,1.79999187889189e+002°)
1.02329299228075e+000	(9.48936023432620e+001dB,1.79999168972721e+002°)
1.04712854805089e+000	(9.48936023387713e+001dB,1.79999149615632e+002°)
1.07151930523760e+000	(9.48936023340662e+001dB,1.79999129807661e+002°)
1.09647819614318e+000	(9.48936023291401e+001dB,1.79999109538305e+002°)
1.12201845430196e+000	(9.48936023239792e+001dB,1.79999088796817e+002°)
1.14815362149688e+000	(9.48936023185761e+001dB,1.79999067572199e+002°)
1.17489755493952e+000	(9.48936023129193e+001dB,1.79999045853199e+002°)
1.20226443461741e+000	(9.48936023069969e+001dB,1.79999023628301e+002°)
1.23026877081237e+000	(9.48936023007964e+001dB,1.79999000885721e+002°)
1.25892541179416e+000	(9.48936022943012e+001dB,1.79998977613401e+002°)
1.28824955169313e+000	(9.48936022875010e+001dB,1.79998953799002e+002°)
1.31825673855640e+000	(9.48936022803779e+001dB,1.79998929429897e+002°)
1.34896288259165e+000	(9.48936022729205e+001dB,1.79998904493166e+002°)
1.38038426460288e+000	(9.48936022651130e+001dB,1.79998878975588e+002°)
1.41253754462275e+000	(9.48936022569353e+001dB,1.79998852863634e+002°)
1.44543977074592e+000	(9.48936022483737e+001dB,1.79998826143457e+002°)
1.47910838816820e+000	(9.48936022394101e+001dB,1.79998798800893e+002°)
1.51356124843620e+000	(9.48936022300221e+001dB,1.79998770821443e+002°)
1.54881661891247e+000	(9.48936022201932e+001dB,1.79998742190272e+002°)
1.58489319246110e+000	(9.48936022098993e+001dB,1.79998712892202e+002°)
1.62181009735892e+000	(9.48936021991186e+001dB,1.79998682911698e+002°)
1.65958690743755e+000	(9.48936021878352e+001dB,1.79998652232865e+002°)
1.69824365246173e+000	(9.48936021760149e+001dB,1.79998620839436e+002°)
1.73780082874936e+000	(9.48936021636397e+001dB,1.79998588714768e+002°)
1.77827941003891e+000	(9.48936021506799e+001dB,1.79998555841828e+002°)
1.81970085860997e+000	(9.48936021371116e+001dB,1.79998522203187e+002°)
1.86208713666286e+000	(9.48936021229027e+001dB,1.79998487781010e+002°)
1.90546071796323e+000	(9.48936021080231e+001dB,1.79998452557048e+002°)
1.94984459975803e+000	(9.48936020924449e+001dB,1.79998416512624e+002°)
1.99526231496887e+000	(9.48936020761317e+001dB,1.79998379628628e+002°)
2.04173794466952e+000	(9.48936020590489e+001dB,1.79998341885506e+002°)
2.08929613085403e+000	(9.48936020411606e+001dB,1.79998303263246e+002°)
2.13796208950222e+000	(9.48936020224289e+001dB,1.79998263741371e+002°)
2.18776162394954e+000	(9.48936020028141e+001dB,1.79998223298928e+002°)
2.23872113856832e+000	(9.48936019822784e+001dB,1.79998181914475e+002°)
2.29086765276776e+000	(9.48936019607713e+001dB,1.79998139566071e+002°)
2.34422881531990e+000	(9.48936019382510e+001dB,1.79998096231263e+002°)
2.39883291901947e+000	(9.48936019146732e+001dB,1.79998051887077e+002°)
2.45470891568501e+000	(9.48936018899778e+001dB,1.79998006510003e+002°)
2.51188643150956e+000	(9.48936018641230e+001dB,1.79997960075983e+002°)
2.57039578276884e+000	(9.48936018370505e+001dB,1.79997912560398e+002°)
2.63026799189536e+000	(9.48936018086999e+001dB,1.79997863938059e+002°)
2.69153480392690e+000	(9.48936017790110e+001dB,1.79997814183187e+002°)
2.75422870333815e+000	(9.48936017479282e+001dB,1.79997763269403e+002°)
2.81838293126443e+000	(9.48936017153755e+001dB,1.79997711169716e+002°)
2.88403150312658e+000	(9.48936016812908e+001dB,1.79997657856504e+002°)
2.95120922666636e+000	(9.48936016456022e+001dB,1.79997603301504e+002°)
3.01995172040199e+000	(9.48936016082273e+001dB,1.79997547475792e+002°)
3.09029543251357e+000	(9.48936015690941e+001dB,1.79997490349773e+002°)
3.16227766016835e+000	(9.48936015281163e+001dB,1.79997431893161e+002°)
3.23593656929626e+000	(9.48936014852075e+001dB,1.79997372074967e+002°)
3.31131121482589e+000	(9.48936014402734e+001dB,1.79997310863478e+002°)
3.38844156139200e+000	(9.48936013932260e+001dB,1.79997248226244e+002°)
3.46736850452529e+000	(9.48936013439590e+001dB,1.79997184130058e+002°)
3.54813389233573e+000	(9.48936012923682e+001dB,1.79997118540942e+002°)
3.63078054770098e+000	(9.48936012383481e+001dB,1.79997051424125e+002°)
3.71535229097170e+000	(9.48936011817846e+001dB,1.79996982744028e+002°)
3.80189396320558e+000	(9.48936011225511e+001dB,1.79996912464240e+002°)
3.89045144994278e+000	(9.48936010605294e+001dB,1.79996840547508e+002°)
3.98107170553494e+000	(9.48936009955816e+001dB,1.79996766955706e+002°)
4.07380277804109e+000	(9.48936009275772e+001dB,1.79996691649824e+002°)
4.16869383470332e+000	(9.48936008563656e+001dB,1.79996614589942e+002°)
4.26579518801589e+000	(9.48936007817964e+001dB,1.79996535735212e+002°)
4.36515832240162e+000	(9.48936007037155e+001dB,1.79996455043833e+002°)
4.46683592150959e+000	(9.48936006219509e+001dB,1.79996372473034e+002°)
4.57088189614871e+000	(9.48936005363368e+001dB,1.79996287979045e+002°)
4.67735141287194e+000	(9.48936004466887e+001dB,1.79996201517079e+002°)
4.78630092322634e+000	(9.48936003528138e+001dB,1.79996113041306e+002°)
4.89778819368442e+000	(9.48936002545137e+001dB,1.79996022504829e+002°)
5.01187233627268e+000	(9.48936001515806e+001dB,1.79995929859660e+002°)
5.12861383991361e+000	(9.48936000438005e+001dB,1.79995835056693e+002°)
5.24807460249768e+000	(9.48935999309386e+001dB,1.79995738045680e+002°)
5.37031796370248e+000	(9.48935998127566e+001dB,1.79995638775204e+002°)
5.49540873857620e+000	(9.48935996890081e+001dB,1.79995537192649e+002°)
5.62341325190344e+000	(9.48935995594248e+001dB,1.79995433244178e+002°)
5.75439937337152e+000	(9.48935994237361e+001dB,1.79995326874697e+002°)
