Freq.	V(vout)
1.00000000000000e-002	(7.99998983874392e+001dB,1.79999999951546e+002°)
1.02329299228075e-002	(7.99998983874392e+001dB,1.79999999950418e+002°)
1.04712854805090e-002	(7.99998983874392e+001dB,1.79999999949263e+002°)
1.07151930523761e-002	(7.99998983874392e+001dB,1.79999999948081e+002°)
1.09647819614318e-002	(7.99998983874392e+001dB,1.79999999946871e+002°)
1.12201845430196e-002	(7.99998983874392e+001dB,1.79999999945634e+002°)
1.14815362149688e-002	(7.99998983874392e+001dB,1.79999999944368e+002°)
1.17489755493953e-002	(7.99998983874392e+001dB,1.79999999943072e+002°)
1.20226443461741e-002	(7.99998983874392e+001dB,1.79999999941746e+002°)
1.23026877081238e-002	(7.99998983874392e+001dB,1.79999999940389e+002°)
1.25892541179417e-002	(7.99998983874392e+001dB,1.79999999939000e+002°)
1.28824955169313e-002	(7.99998983874392e+001dB,1.79999999937579e+002°)
1.31825673855641e-002	(7.99998983874392e+001dB,1.79999999936125e+002°)
1.34896288259165e-002	(7.99998983874392e+001dB,1.79999999934638e+002°)
1.38038426460288e-002	(7.99998983874392e+001dB,1.79999999933115e+002°)
1.41253754462275e-002	(7.99998983874392e+001dB,1.79999999931557e+002°)
1.44543977074593e-002	(7.99998983874392e+001dB,1.79999999929963e+002°)
1.47910838816821e-002	(7.99998983874392e+001dB,1.79999999928332e+002°)
1.51356124843621e-002	(7.99998983874392e+001dB,1.79999999926662e+002°)
1.54881661891248e-002	(7.99998983874392e+001dB,1.79999999924954e+002°)
1.58489319246111e-002	(7.99998983874392e+001dB,1.79999999923206e+002°)
1.62181009735893e-002	(7.99998983874392e+001dB,1.79999999921417e+002°)
1.65958690743756e-002	(7.99998983874392e+001dB,1.79999999919587e+002°)
1.69824365246174e-002	(7.99998983874392e+001dB,1.79999999917714e+002°)
1.73780082874937e-002	(7.99998983874392e+001dB,1.79999999915797e+002°)
1.77827941003892e-002	(7.99998983874392e+001dB,1.79999999913836e+002°)
1.81970085860998e-002	(7.99998983874392e+001dB,1.79999999911829e+002°)
1.86208713666287e-002	(7.99998983874392e+001dB,1.79999999909775e+002°)
1.90546071796325e-002	(7.99998983874392e+001dB,1.79999999907673e+002°)
1.94984459975804e-002	(7.99998983874392e+001dB,1.79999999905523e+002°)
1.99526231496888e-002	(7.99998983874392e+001dB,1.79999999903322e+002°)
2.04173794466953e-002	(7.99998983874392e+001dB,1.79999999901070e+002°)
2.08929613085404e-002	(7.99998983874392e+001dB,1.79999999898766e+002°)
2.13796208950223e-002	(7.99998983874392e+001dB,1.79999999896408e+002°)
2.18776162394955e-002	(7.99998983874392e+001dB,1.79999999893995e+002°)
2.23872113856834e-002	(7.99998983874392e+001dB,1.79999999891525e+002°)
2.29086765276777e-002	(7.99998983874392e+001dB,1.79999999888999e+002°)
2.34422881531992e-002	(7.99998983874392e+001dB,1.79999999886413e+002°)
2.39883291901949e-002	(7.99998983874392e+001dB,1.79999999883767e+002°)
2.45470891568503e-002	(7.99998983874392e+001dB,1.79999999881060e+002°)
2.51188643150958e-002	(7.99998983874392e+001dB,1.79999999878289e+002°)
2.57039578276886e-002	(7.99998983874392e+001dB,1.79999999875454e+002°)
2.63026799189538e-002	(7.99998983874392e+001dB,1.79999999872553e+002°)
2.69153480392691e-002	(7.99998983874392e+001dB,1.79999999869585e+002°)
2.75422870333816e-002	(7.99998983874392e+001dB,1.79999999866547e+002°)
2.81838293126445e-002	(7.99998983874392e+001dB,1.79999999863439e+002°)
2.88403150312660e-002	(7.99998983874392e+001dB,1.79999999860258e+002°)
2.95120922666638e-002	(7.99998983874392e+001dB,1.79999999857003e+002°)
3.01995172040201e-002	(7.99998983874392e+001dB,1.79999999853672e+002°)
3.09029543251359e-002	(7.99998983874392e+001dB,1.79999999850263e+002°)
3.16227766016838e-002	(7.99998983874392e+001dB,1.79999999846776e+002°)
3.23593656929628e-002	(7.99998983874392e+001dB,1.79999999843207e+002°)
3.31131121482591e-002	(7.99998983874392e+001dB,1.79999999839554e+002°)
3.38844156139202e-002	(7.99998983874392e+001dB,1.79999999835817e+002°)
3.46736850452531e-002	(7.99998983874392e+001dB,1.79999999831993e+002°)
3.54813389233575e-002	(7.99998983874392e+001dB,1.79999999828079e+002°)
3.63078054770101e-002	(7.99998983874392e+001dB,1.79999999824075e+002°)
3.71535229097172e-002	(7.99998983874392e+001dB,1.79999999819977e+002°)
3.80189396320561e-002	(7.99998983874392e+001dB,1.79999999815784e+002°)
3.89045144994280e-002	(7.99998983874392e+001dB,1.79999999811493e+002°)
3.98107170553497e-002	(7.99998983874392e+001dB,1.79999999807102e+002°)
4.07380277804112e-002	(7.99998983874392e+001dB,1.79999999802609e+002°)
4.16869383470335e-002	(7.99998983874392e+001dB,1.79999999798011e+002°)
4.26579518801592e-002	(7.99998983874392e+001dB,1.79999999793306e+002°)
4.36515832240165e-002	(7.99998983874392e+001dB,1.79999999788491e+002°)
4.46683592150962e-002	(7.99998983874392e+001dB,1.79999999783565e+002°)
4.57088189614874e-002	(7.99998983874392e+001dB,1.79999999778523e+002°)
4.67735141287197e-002	(7.99998983874392e+001dB,1.79999999773364e+002°)
4.78630092322637e-002	(7.99998983874392e+001dB,1.79999999768085e+002°)
4.89778819368445e-002	(7.99998983874392e+001dB,1.79999999762683e+002°)
5.01187233627271e-002	(7.99998983874392e+001dB,1.79999999757156e+002°)
5.12861383991364e-002	(7.99998983874392e+001dB,1.79999999751499e+002°)
5.24807460249771e-002	(7.99998983874392e+001dB,1.79999999745711e+002°)
5.37031796370252e-002	(7.99998983874392e+001dB,1.79999999739788e+002°)
5.49540873857623e-002	(7.99998983874392e+001dB,1.79999999733726e+002°)
5.62341325190348e-002	(7.99998983874392e+001dB,1.79999999727524e+002°)
5.75439937337156e-002	(7.99998983874392e+001dB,1.79999999721177e+002°)
5.88843655355588e-002	(7.99998983874392e+001dB,1.79999999714683e+002°)
6.02559586074356e-002	(7.99998983874392e+001dB,1.79999999708037e+002°)
6.16595001861481e-002	(7.99998983874392e+001dB,1.79999999701236e+002°)
6.30957344480192e-002	(7.99998983874392e+001dB,1.79999999694277e+002°)
6.45654229034654e-002	(7.99998983874392e+001dB,1.79999999687156e+002°)
6.60693448007594e-002	(7.99998983874392e+001dB,1.79999999679869e+002°)
6.76082975391980e-002	(7.99998983874392e+001dB,1.79999999672412e+002°)
6.91830970918935e-002	(7.99998983874392e+001dB,1.79999999664781e+002°)
7.07945784384136e-002	(7.99998983874392e+001dB,1.79999999656973e+002°)
7.24435960074988e-002	(7.99998983874392e+001dB,1.79999999648983e+002°)
7.41310241300916e-002	(7.99998983874392e+001dB,1.79999999640807e+002°)
7.58577575029182e-002	(7.99998983874392e+001dB,1.79999999632440e+002°)
7.76247116628690e-002	(7.99998983874392e+001dB,1.79999999623879e+002°)
7.94328234724279e-002	(7.99998983874392e+001dB,1.79999999615118e+002°)
8.12830516164097e-002	(7.99998983874392e+001dB,1.79999999606153e+002°)
8.31763771102669e-002	(7.99998983874392e+001dB,1.79999999596979e+002°)
8.51138038202374e-002	(7.99998983874392e+001dB,1.79999999587591e+002°)
8.70963589956078e-002	(7.99998983874392e+001dB,1.79999999577985e+002°)
8.91250938133743e-002	(7.99998983874392e+001dB,1.79999999568155e+002°)
9.12010839355907e-002	(7.99998983874392e+001dB,1.79999999558096e+002°)
9.33254300796988e-002	(7.99998983874392e+001dB,1.79999999547803e+002°)
9.54992586021433e-002	(7.99998983874392e+001dB,1.79999999537270e+002°)
9.77237220955808e-002	(7.99998983874392e+001dB,1.79999999526491e+002°)
9.99999999999997e-002	(7.99998983874392e+001dB,1.79999999515462e+002°)
1.02329299228075e-001	(7.99998983874392e+001dB,1.79999999504175e+002°)
1.04712854805090e-001	(7.99998983874392e+001dB,1.79999999492626e+002°)
1.07151930523760e-001	(7.99998983874392e+001dB,1.79999999480808e+002°)
1.09647819614318e-001	(7.99998983874392e+001dB,1.79999999468714e+002°)
1.12201845430196e-001	(7.99998983874392e+001dB,1.79999999456339e+002°)
1.14815362149688e-001	(7.99998983874392e+001dB,1.79999999443676e+002°)
1.17489755493953e-001	(7.99998983874392e+001dB,1.79999999430717e+002°)
1.20226443461741e-001	(7.99998983874392e+001dB,1.79999999417457e+002°)
1.23026877081238e-001	(7.99998983874392e+001dB,1.79999999403888e+002°)
1.25892541179416e-001	(7.99998983874392e+001dB,1.79999999390002e+002°)
1.28824955169313e-001	(7.99998983874392e+001dB,1.79999999375794e+002°)
1.31825673855640e-001	(7.99998983874392e+001dB,1.79999999361254e+002°)
1.34896288259165e-001	(7.99998983874392e+001dB,1.79999999346376e+002°)
1.38038426460288e-001	(7.99998983874392e+001dB,1.79999999331151e+002°)
1.41253754462275e-001	(7.99998983874392e+001dB,1.79999999315572e+002°)
1.44543977074592e-001	(7.99998983874392e+001dB,1.79999999299629e+002°)
1.47910838816820e-001	(7.99998983874392e+001dB,1.79999999283315e+002°)
1.51356124843620e-001	(7.99998983874392e+001dB,1.79999999266622e+002°)
1.54881661891248e-001	(7.99998983874392e+001dB,1.79999999249539e+002°)
1.58489319246111e-001	(7.99998983874392e+001dB,1.79999999232059e+002°)
1.62181009735892e-001	(7.99998983874392e+001dB,1.79999999214171e+002°)
1.65958690743755e-001	(7.99998983874392e+001dB,1.79999999195867e+002°)
1.69824365246174e-001	(7.99998983874392e+001dB,1.79999999177136e+002°)
1.73780082874937e-001	(7.99998983874392e+001dB,1.79999999157969e+002°)
1.77827941003892e-001	(7.99998983874392e+001dB,1.79999999138356e+002°)
1.81970085860998e-001	(7.99998983874392e+001dB,1.79999999118285e+002°)
1.86208713666286e-001	(7.99998983874392e+001dB,1.79999999097748e+002°)
1.90546071796324e-001	(7.99998983874392e+001dB,1.79999999076731e+002°)
1.94984459975804e-001	(7.99998983874392e+001dB,1.79999999055226e+002°)
1.99526231496887e-001	(7.99998983874392e+001dB,1.79999999033219e+002°)
2.04173794466952e-001	(7.99998983874392e+001dB,1.79999999010700e+002°)
2.08929613085403e-001	(7.99998983874392e+001dB,1.79999998987656e+002°)
2.13796208950222e-001	(7.99998983874392e+001dB,1.79999998964076e+002°)
2.18776162394954e-001	(7.99998983874392e+001dB,1.79999998939946e+002°)
2.23872113856833e-001	(7.99998983874392e+001dB,1.79999998915254e+002°)
2.29086765276776e-001	(7.99998983874392e+001dB,1.79999998889987e+002°)
2.34422881531991e-001	(7.99998983874392e+001dB,1.79999998864131e+002°)
2.39883291901948e-001	(7.99998983874392e+001dB,1.79999998837674e+002°)
2.45470891568502e-001	(7.99998983874392e+001dB,1.79999998810600e+002°)
2.51188643150957e-001	(7.99998983874392e+001dB,1.79999998782895e+002°)
2.57039578276885e-001	(7.99998983874392e+001dB,1.79999998754545e+002°)
2.63026799189537e-001	(7.99998983874392e+001dB,1.79999998725534e+002°)
2.69153480392690e-001	(7.99998983874392e+001dB,1.79999998695848e+002°)
2.75422870333815e-001	(7.99998983874392e+001dB,1.79999998665471e+002°)
2.81838293126444e-001	(7.99998983874392e+001dB,1.79999998634386e+002°)
2.88403150312659e-001	(7.99998983874392e+001dB,1.79999998602576e+002°)
2.95120922666637e-001	(7.99998983874392e+001dB,1.79999998570026e+002°)
3.01995172040200e-001	(7.99998983874392e+001dB,1.79999998536718e+002°)
3.09029543251358e-001	(7.99998983874392e+001dB,1.79999998502634e+002°)
3.16227766016837e-001	(7.99998983874392e+001dB,1.79999998467755e+002°)
3.23593656929627e-001	(7.99998983874392e+001dB,1.79999998432065e+002°)
3.31131121482590e-001	(7.99998983874392e+001dB,1.79999998395543e+002°)
3.38844156139201e-001	(7.99998983874392e+001dB,1.79999998358170e+002°)
3.46736850452530e-001	(7.99998983874392e+001dB,1.79999998319927e+002°)
3.54813389233574e-001	(7.99998983874392e+001dB,1.79999998280793e+002°)
3.63078054770100e-001	(7.99998983874392e+001dB,1.79999998240748e+002°)
3.71535229097171e-001	(7.99998983874392e+001dB,1.79999998199770e+002°)
3.80189396320559e-001	(7.99998983874392e+001dB,1.79999998157837e+002°)
3.89045144994279e-001	(7.99998983874392e+001dB,1.79999998114927e+002°)
3.98107170553495e-001	(7.99998983874392e+001dB,1.79999998071018e+002°)
4.07380277804111e-001	(7.99998983874392e+001dB,1.79999998026087e+002°)
4.16869383470333e-001	(7.99998983874392e+001dB,1.79999997980108e+002°)
4.26579518801591e-001	(7.99998983874392e+001dB,1.79999997933059e+002°)
4.36515832240164e-001	(7.99998983874392e+001dB,1.79999997884914e+002°)
4.46683592150961e-001	(7.99998983874392e+001dB,1.79999997835647e+002°)
4.57088189614873e-001	(7.99998983874392e+001dB,1.79999997785233e+002°)
4.67735141287196e-001	(7.99998983874392e+001dB,1.79999997733644e+002°)
4.78630092322636e-001	(7.99998983874392e+001dB,1.79999997680854e+002°)
4.89778819368444e-001	(7.99998983874392e+001dB,1.79999997626834e+002°)
5.01187233627270e-001	(7.99998983874392e+001dB,1.79999997571556e+002°)
5.12861383991362e-001	(7.99998983874392e+001dB,1.79999997514990e+002°)
5.24807460249770e-001	(7.99998983874392e+001dB,1.79999997457107e+002°)
5.37031796370250e-001	(7.99998983874392e+001dB,1.79999997397875e+002°)
5.49540873857622e-001	(7.99998983874392e+001dB,1.79999997337264e+002°)
5.62341325190346e-001	(7.99998983874392e+001dB,1.79999997275241e+002°)
5.75439937337154e-001	(7.99998983874392e+001dB,1.79999997211773e+002°)
5.88843655355586e-001	(7.99998983874392e+001dB,1.79999997146827e+002°)
6.02559586074355e-001	(7.99998983874392e+001dB,1.79999997080368e+002°)
6.16595001861479e-001	(7.99998983874392e+001dB,1.79999997012361e+002°)
6.30957344480190e-001	(7.99998983874392e+001dB,1.79999996942770e+002°)
6.45654229034652e-001	(7.99998983874392e+001dB,1.79999996871558e+002°)
6.60693448007592e-001	(7.99998983874392e+001dB,1.79999996798687e+002°)
6.76082975391978e-001	(7.99998983874392e+001dB,1.79999996724119e+002°)
6.91830970918933e-001	(7.99998983874392e+001dB,1.79999996647814e+002°)
7.07945784384134e-001	(7.99998983874392e+001dB,1.79999996569732e+002°)
7.24435960074986e-001	(7.99998983874392e+001dB,1.79999996489830e+002°)
7.41310241300913e-001	(7.99998983874392e+001dB,1.79999996408068e+002°)
7.58577575029179e-001	(7.99998983874392e+001dB,1.79999996324401e+002°)
7.76247116628687e-001	(7.99998983874392e+001dB,1.79999996238786e+002°)
7.94328234724277e-001	(7.99998983874392e+001dB,1.79999996151176e+002°)
8.12830516164095e-001	(7.99998983874392e+001dB,1.79999996061525e+002°)
8.31763771102666e-001	(7.99998983874392e+001dB,1.79999995969786e+002°)
8.51138038202372e-001	(7.99998983874392e+001dB,1.79999995875910e+002°)
8.70963589956076e-001	(7.99998983874392e+001dB,1.79999995779848e+002°)
8.91250938133740e-001	(7.99998983874392e+001dB,1.79999995681548e+002°)
9.12010839355904e-001	(7.99998983874392e+001dB,1.79999995580958e+002°)
9.33254300796986e-001	(7.99998983874392e+001dB,1.79999995478026e+002°)
9.54992586021430e-001	(7.99998983874392e+001dB,1.79999995372695e+002°)
9.77237220955805e-001	(7.99998983874392e+001dB,1.79999995264912e+002°)
9.99999999999994e-001	(7.99998983874392e+001dB,1.79999995154617e+002°)
1.02329299228075e+000	(7.99998983874392e+001dB,1.79999995041754e+002°)
1.04712854805089e+000	(7.99998983874392e+001dB,1.79999994926261e+002°)
1.07151930523760e+000	(7.99998983874392e+001dB,1.79999994808079e+002°)
1.09647819614318e+000	(7.99998983874392e+001dB,1.79999994687143e+002°)
1.12201845430196e+000	(7.99998983874392e+001dB,1.79999994563391e+002°)
1.14815362149688e+000	(7.99998983874392e+001dB,1.79999994436756e+002°)
1.17489755493952e+000	(7.99998983874392e+001dB,1.79999994307172e+002°)
1.20226443461741e+000	(7.99998983874392e+001dB,1.79999994174569e+002°)
1.23026877081237e+000	(7.99998983874392e+001dB,1.79999994038877e+002°)
1.25892541179416e+000	(7.99998983874392e+001dB,1.79999993900025e+002°)
1.28824955169313e+000	(7.99998983874392e+001dB,1.79999993757938e+002°)
1.31825673855640e+000	(7.99998983874392e+001dB,1.79999993612542e+002°)
1.34896288259165e+000	(7.99998983874392e+001dB,1.79999993463759e+002°)
1.38038426460288e+000	(7.99998983874392e+001dB,1.79999993311510e+002°)
1.41253754462275e+000	(7.99998983874392e+001dB,1.79999993155715e+002°)
1.44543977074592e+000	(7.99998983874392e+001dB,1.79999992996291e+002°)
1.47910838816820e+000	(7.99998983874392e+001dB,1.79999992833154e+002°)
1.51356124843620e+000	(7.99998983874392e+001dB,1.79999992666216e+002°)
1.54881661891247e+000	(7.99998983874392e+001dB,1.79999992495391e+002°)
1.58489319246110e+000	(7.99998983874392e+001dB,1.79999992320586e+002°)
1.62181009735892e+000	(7.99998983874392e+001dB,1.79999992141709e+002°)
1.65958690743755e+000	(7.99998983874392e+001dB,1.79999991958666e+002°)
1.69824365246173e+000	(7.99998983874392e+001dB,1.79999991771359e+002°)
1.73780082874936e+000	(7.99998983874392e+001dB,1.79999991579690e+002°)
1.77827941003891e+000	(7.99998983874392e+001dB,1.79999991383556e+002°)
1.81970085860997e+000	(7.99998983874392e+001dB,1.79999991182853e+002°)
1.86208713666286e+000	(7.99998983874392e+001dB,1.79999990977475e+002°)
1.90546071796323e+000	(7.99998983874392e+001dB,1.79999990767314e+002°)
1.94984459975803e+000	(7.99998983874392e+001dB,1.79999990552257e+002°)
1.99526231496887e+000	(7.99998983874392e+001dB,1.79999990332190e+002°)
2.04173794466952e+000	(7.99998983874392e+001dB,1.79999990106998e+002°)
2.08929613085403e+000	(7.99998983874392e+001dB,1.79999989876561e+002°)
2.13796208950222e+000	(7.99998983874392e+001dB,1.79999989640755e+002°)
2.18776162394954e+000	(7.99998983874392e+001dB,1.79999989399458e+002°)
2.23872113856832e+000	(7.99998983874392e+001dB,1.79999989152539e+002°)
2.29086765276776e+000	(7.99998983874392e+001dB,1.79999988899869e+002°)
2.34422881531990e+000	(7.99998983874392e+001dB,1.79999988641314e+002°)
2.39883291901947e+000	(7.99998983874392e+001dB,1.79999988376736e+002°)
2.45470891568501e+000	(7.99998983874392e+001dB,1.79999988105996e+002°)
2.51188643150956e+000	(7.99998983874392e+001dB,1.79999987828949e+002°)
2.57039578276884e+000	(7.99998983874392e+001dB,1.79999987545449e+002°)
2.63026799189536e+000	(7.99998983874392e+001dB,1.79999987255345e+002°)
2.69153480392690e+000	(7.99998983874392e+001dB,1.79999986958484e+002°)
2.75422870333815e+000	(7.99998983874392e+001dB,1.79999986654708e+002°)
2.81838293126443e+000	(7.99998983874392e+001dB,1.79999986343856e+002°)
2.88403150312658e+000	(7.99998983874392e+001dB,1.79999986025763e+002°)
2.95120922666636e+000	(7.99998983874392e+001dB,1.79999985700262e+002°)
3.01995172040199e+000	(7.99998983874392e+001dB,1.79999985367178e+002°)
3.09029543251357e+000	(7.99998983874392e+001dB,1.79999985026336e+002°)
3.16227766016835e+000	(7.99998983874392e+001dB,1.79999984677554e+002°)
3.23593656929626e+000	(7.99998983874392e+001dB,1.79999984320649e+002°)
3.31131121482589e+000	(7.99998983874392e+001dB,1.79999983955430e+002°)
3.38844156139200e+000	(7.99998983874392e+001dB,1.79999983581704e+002°)
3.46736850452529e+000	(7.99998983874392e+001dB,1.79999983199272e+002°)
3.54813389233573e+000	(7.99998983874392e+001dB,1.79999982807933e+002°)
3.63078054770098e+000	(7.99998983874392e+001dB,1.79999982407479e+002°)
3.71535229097170e+000	(7.99998983874392e+001dB,1.79999981997696e+002°)
3.80189396320558e+000	(7.99998983874392e+001dB,1.79999981578369e+002°)
3.89045144994278e+000	(7.99998983874392e+001dB,1.79999981149274e+002°)
3.98107170553494e+000	(7.99998983874392e+001dB,1.79999980710184e+002°)
4.07380277804109e+000	(7.99998983874392e+001dB,1.79999980260866e+002°)
4.16869383470332e+000	(7.99998983874392e+001dB,1.79999979801083e+002°)
4.26579518801589e+000	(7.99998983874392e+001dB,1.79999979330590e+002°)
4.36515832240162e+000	(7.99998983874392e+001dB,1.79999978849137e+002°)
4.46683592150959e+000	(7.99998983874392e+001dB,1.79999978356470e+002°)
4.57088189614871e+000	(7.99998983874392e+001dB,1.79999977852328e+002°)
4.67735141287194e+000	(7.99998983874392e+001dB,1.79999977336442e+002°)
4.78630092322634e+000	(7.99998983874392e+001dB,1.79999976808540e+002°)
4.89778819368442e+000	(7.99998983874392e+001dB,1.79999976268342e+002°)
5.01187233627268e+000	(7.99998983874392e+001dB,1.79999975715560e+002°)
5.12861383991361e+000	(7.99998983874392e+001dB,1.79999975149903e+002°)
5.24807460249768e+000	(7.99998983874392e+001dB,1.79999974571070e+002°)
5.37031796370248e+000	(7.99998983874392e+001dB,1.79999973978754e+002°)
5.49540873857620e+000	(7.99998983874392e+001dB,1.79999973372641e+002°)
5.62341325190344e+000	(7.99998983874392e+001dB,1.79999972752410e+002°)
5.75439937337152e+000	(7.99998983874392e+001dB,1.79999972117733e+002°)
