frequency,V(onoise),V(r1)
1.000000000000000e-001,8.159386e-007,4.524919e-009
1.023292992280754e-001,8.066036e-007,4.524919e-009
1.047128548050900e-001,7.973756e-007,4.524919e-009
1.071519305237607e-001,7.882533e-007,4.524919e-009
1.096478196143185e-001,7.792354e-007,4.524919e-009
1.122018454301964e-001,7.703208e-007,4.524919e-009
1.148153621496883e-001,7.615083e-007,4.524919e-009
1.174897554939530e-001,7.527968e-007,4.524919e-009
1.202264434617413e-001,7.441851e-007,4.524919e-009
1.230268770812382e-001,7.356719e-007,4.524919e-009
1.258925411794167e-001,7.272563e-007,4.524919e-009
1.288249551693134e-001,7.189371e-007,4.524919e-009
1.318256738556407e-001,7.107132e-007,4.524919e-009
1.348962882591653e-001,7.025835e-007,4.524919e-009
1.380384264602884e-001,6.945469e-007,4.524919e-009
1.412537544622754e-001,6.866024e-007,4.524919e-009
1.445439770745927e-001,6.787489e-007,4.524919e-009
1.479108388168207e-001,6.709853e-007,4.524919e-009
1.513561248436207e-001,6.633107e-007,4.524919e-009
1.548816618912480e-001,6.557241e-007,4.524919e-009
1.584893192461112e-001,6.482243e-007,4.524919e-009
1.621810097358929e-001,6.408105e-007,4.524919e-009
1.659586907437559e-001,6.334815e-007,4.524919e-009
1.698243652461743e-001,6.262366e-007,4.524919e-009
1.737800828749374e-001,6.190747e-007,4.524919e-009
1.778279410038921e-001,6.119948e-007,4.524919e-009
1.819700858609982e-001,6.049960e-007,4.524919e-009
1.862087136662866e-001,5.980775e-007,4.524919e-009
1.905460717963245e-001,5.912382e-007,4.524919e-009
1.949844599758043e-001,5.844773e-007,4.524919e-009
1.995262314968878e-001,5.777939e-007,4.524919e-009
2.041737944669527e-001,5.711869e-007,4.524919e-009
2.089296130854037e-001,5.646558e-007,4.524919e-009
2.137962089502230e-001,5.581995e-007,4.524919e-009
2.187761623949550e-001,5.518172e-007,4.524919e-009
2.238721138568337e-001,5.455080e-007,4.524919e-009
2.290867652767770e-001,5.392711e-007,4.524919e-009
2.344228815319919e-001,5.331057e-007,4.524919e-009
2.398832919019487e-001,5.270110e-007,4.524919e-009
2.454708915685027e-001,5.209861e-007,4.524919e-009
2.511886431509577e-001,5.150303e-007,4.524919e-009
2.570395782768861e-001,5.091428e-007,4.524919e-009
2.630267991895379e-001,5.033227e-007,4.524919e-009
2.691534803926912e-001,4.975693e-007,4.524919e-009
2.754228703338163e-001,4.918820e-007,4.524919e-009
2.818382931264450e-001,4.862598e-007,4.524919e-009
2.884031503126602e-001,4.807020e-007,4.524919e-009
2.951209226666382e-001,4.752080e-007,4.524919e-009
3.019951720402012e-001,4.697769e-007,4.524919e-009
3.090295432513586e-001,4.644081e-007,4.524919e-009
3.162277660168375e-001,4.591009e-007,4.524919e-009
3.235936569296278e-001,4.538546e-007,4.524919e-009
3.311311214825907e-001,4.486683e-007,4.524919e-009
3.388441561392021e-001,4.435416e-007,4.524919e-009
3.467368504525312e-001,4.384737e-007,4.524919e-009
3.548133892335750e-001,4.334638e-007,4.524919e-009
3.630780547701009e-001,4.285115e-007,4.524919e-009
3.715352290971720e-001,4.236159e-007,4.524919e-009
3.801893963205607e-001,4.187765e-007,4.524919e-009
3.890451449942800e-001,4.139926e-007,4.524919e-009
3.981071705534967e-001,4.092635e-007,4.524919e-009
4.073802778041121e-001,4.045887e-007,4.524919e-009
4.168693834703348e-001,3.999675e-007,4.524919e-009
4.265795188015920e-001,3.953994e-007,4.524919e-009
4.365158322401653e-001,3.908837e-007,4.524919e-009
4.466835921509624e-001,3.864197e-007,4.524919e-009
4.570881896148742e-001,3.820070e-007,4.524919e-009
4.677351412871974e-001,3.776449e-007,4.524919e-009
4.786300923226375e-001,3.733329e-007,4.524919e-009
4.897788193684454e-001,3.690704e-007,4.524919e-009
5.011872336272715e-001,3.648567e-007,4.524919e-009
5.128613839913641e-001,3.606915e-007,4.524919e-009
5.248074602497718e-001,3.565740e-007,4.524919e-009
5.370317963702519e-001,3.525039e-007,4.524919e-009
5.495408738576236e-001,3.484804e-007,4.524919e-009
5.623413251903481e-001,3.445031e-007,4.524919e-009
5.754399373371559e-001,3.405715e-007,4.524919e-009
5.888436553555879e-001,3.366850e-007,4.524919e-009
6.025595860743567e-001,3.328432e-007,4.524919e-009
6.165950018614811e-001,3.290455e-007,4.524919e-009
6.309573444801921e-001,3.252914e-007,4.524919e-009
6.456542290346544e-001,3.215804e-007,4.524919e-009
6.606934480075949e-001,3.179120e-007,4.524919e-009
6.760829753919806e-001,3.142858e-007,4.524919e-009
6.918309709189353e-001,3.107012e-007,4.524919e-009
7.079457843841367e-001,3.071578e-007,4.524919e-009
7.244359600749888e-001,3.036552e-007,4.524919e-009
7.413102413009162e-001,3.001927e-007,4.524919e-009
7.585775750291823e-001,2.967701e-007,4.524919e-009
7.762471166286903e-001,2.933868e-007,4.524919e-009
7.943282347242799e-001,2.900424e-007,4.524919e-009
8.128305161640976e-001,2.867364e-007,4.524919e-009
8.317637711026693e-001,2.834684e-007,4.524919e-009
8.511380382023747e-001,2.802381e-007,4.524919e-009
8.709635899560788e-001,2.770448e-007,4.524919e-009
8.912509381337437e-001,2.738883e-007,4.524919e-009
9.120108393559078e-001,2.707681e-007,4.524919e-009
9.332543007969890e-001,2.676837e-007,4.524919e-009
9.549925860214339e-001,2.646348e-007,4.524919e-009
9.772372209558086e-001,2.616211e-007,4.524919e-009
9.999999999999978e-001,2.586420e-007,4.524919e-009
1.023292992280752e+000,2.556972e-007,4.524919e-009
1.047128548050897e+000,2.527862e-007,4.524919e-009
1.071519305237604e+000,2.499088e-007,4.524919e-009
1.096478196143182e+000,2.470645e-007,4.524919e-009
1.122018454301961e+000,2.442530e-007,4.524919e-009
1.148153621496880e+000,2.414738e-007,4.524919e-009
1.174897554939527e+000,2.387266e-007,4.524919e-009
1.202264434617410e+000,2.360111e-007,4.524919e-009
1.230268770812378e+000,2.333268e-007,4.524919e-009
1.258925411794164e+000,2.306735e-007,4.524919e-009
1.288249551693131e+000,2.280508e-007,4.524919e-009
1.318256738556404e+000,2.254583e-007,4.524919e-009
1.348962882591650e+000,2.228956e-007,4.524919e-009
1.380384264602881e+000,2.203625e-007,4.524919e-009
1.412537544622750e+000,2.178586e-007,4.524919e-009
1.445439770745923e+000,2.153836e-007,4.524919e-009
1.479108388168203e+000,2.129372e-007,4.524919e-009
1.513561248436204e+000,2.105189e-007,4.524919e-009
1.548816618912477e+000,2.081286e-007,4.524918e-009
1.584893192461109e+000,2.057658e-007,4.524918e-009
1.621810097358925e+000,2.034303e-007,4.524918e-009
1.659586907437555e+000,2.011218e-007,4.524918e-009
1.698243652461739e+000,1.988400e-007,4.524918e-009
1.737800828749370e+000,1.965844e-007,4.524918e-009
1.778279410038917e+000,1.943550e-007,4.524918e-009
1.819700858609977e+000,1.921513e-007,4.524918e-009
1.862087136662861e+000,1.899731e-007,4.524918e-009
1.905460717963241e+000,1.878200e-007,4.524918e-009
1.949844599758039e+000,1.856919e-007,4.524918e-009
1.995262314968873e+000,1.835883e-007,4.524918e-009
2.041737944669523e+000,1.815091e-007,4.524918e-009
2.089296130854033e+000,1.794539e-007,4.524918e-009
2.137962089502225e+000,1.774226e-007,4.524918e-009
2.187761623949545e+000,1.754147e-007,4.524918e-009
2.238721138568332e+000,1.734301e-007,4.524918e-009
2.290867652767766e+000,1.714685e-007,4.524918e-009
2.344228815319914e+000,1.695296e-007,4.524918e-009
2.398832919019482e+000,1.676131e-007,4.524918e-009
2.454708915685022e+000,1.657189e-007,4.524918e-009
2.511886431509572e+000,1.638466e-007,4.524918e-009
2.570395782768855e+000,1.619961e-007,4.524918e-009
2.630267991895373e+000,1.601670e-007,4.524918e-009
2.691534803926906e+000,1.583592e-007,4.524918e-009
2.754228703338157e+000,1.565723e-007,4.524918e-009
2.818382931264444e+000,1.548062e-007,4.524918e-009
2.884031503126595e+000,1.530606e-007,4.524918e-009
2.951209226666375e+000,1.513352e-007,4.524918e-009
3.019951720402005e+000,1.496300e-007,4.524918e-009
3.090295432513579e+000,1.479445e-007,4.524918e-009
3.162277660168367e+000,1.462787e-007,4.524918e-009
3.235936569296270e+000,1.446323e-007,4.524918e-009
3.311311214825898e+000,1.430050e-007,4.524918e-009
3.388441561392012e+000,1.413967e-007,4.524918e-009
3.467368504525302e+000,1.398071e-007,4.524918e-009
3.548133892335740e+000,1.382360e-007,4.524918e-009
3.630780547700999e+000,1.366832e-007,4.524918e-009
3.715352290971711e+000,1.351486e-007,4.524918e-009
3.801893963205597e+000,1.336318e-007,4.524918e-009
3.890451449942790e+000,1.321328e-007,4.524918e-009
3.981071705534956e+000,1.306513e-007,4.524918e-009
4.073802778041110e+000,1.291871e-007,4.524918e-009
4.168693834703337e+000,1.277400e-007,4.524918e-009
4.265795188015909e+000,1.263098e-007,4.524918e-009
4.365158322401642e+000,1.248964e-007,4.524918e-009
4.466835921509612e+000,1.234995e-007,4.524918e-009
4.570881896148731e+000,1.221189e-007,4.524918e-009
4.677351412871962e+000,1.207546e-007,4.524918e-009
4.786300923226363e+000,1.194062e-007,4.524918e-009
4.897788193684440e+000,1.180737e-007,4.524918e-009
5.011872336272701e+000,1.167568e-007,4.524918e-009
5.128613839913625e+000,1.154553e-007,4.524918e-009
5.248074602497702e+000,1.141692e-007,4.524918e-009
5.370317963702503e+000,1.128982e-007,4.524918e-009
5.495408738576220e+000,1.116421e-007,4.524918e-009
5.623413251903465e+000,1.104008e-007,4.524918e-009
5.754399373371542e+000,1.091741e-007,4.524918e-009
5.888436553555861e+000,1.079619e-007,4.524918e-009
6.025595860743549e+000,1.067640e-007,4.524918e-009
6.165950018614792e+000,1.055802e-007,4.524918e-009
6.309573444801902e+000,1.044105e-007,4.524918e-009
6.456542290346524e+000,1.032545e-007,4.524918e-009
6.606934480075928e+000,1.021122e-007,4.524918e-009
6.760829753919785e+000,1.009834e-007,4.524918e-009
6.918309709189331e+000,9.986802e-008,4.524918e-009
7.079457843841344e+000,9.876583e-008,4.524918e-009
7.244359600749864e+000,9.767672e-008,4.524918e-009
7.413102413009137e+000,9.660054e-008,4.524918e-009
7.585775750291798e+000,9.553714e-008,4.524918e-009
7.762471166286877e+000,9.448639e-008,4.524918e-009
7.943282347242774e+000,9.344814e-008,4.524918e-009
8.128305161640951e+000,9.242225e-008,4.524918e-009
8.317637711026666e+000,9.140860e-008,4.524918e-009
8.511380382023720e+000,9.040704e-008,4.524918e-009
8.709635899560761e+000,8.941744e-008,4.524918e-009
8.912509381337408e+000,8.843967e-008,4.524918e-009
9.120108393559049e+000,8.747359e-008,4.524918e-009
9.332543007969861e+000,8.651909e-008,4.524918e-009
9.549925860214309e+000,8.557603e-008,4.524918e-009
9.772372209558055e+000,8.464429e-008,4.524918e-009
9.999999999999947e+000,8.372374e-008,4.524918e-009
1.023292992280749e+001,8.281425e-008,4.524918e-009
1.047128548050894e+001,8.191572e-008,4.524918e-009
1.071519305237601e+001,8.102801e-008,4.524918e-009
1.096478196143179e+001,8.015101e-008,4.524918e-009
1.122018454301957e+001,7.928460e-008,4.524917e-009
1.148153621496876e+001,7.842867e-008,4.524917e-009
1.174897554939523e+001,7.758310e-008,4.524917e-009
1.202264434617406e+001,7.674777e-008,4.524917e-009
1.230268770812375e+001,7.592258e-008,4.524917e-009
1.258925411794160e+001,7.510742e-008,4.524917e-009
1.288249551693127e+001,7.430217e-008,4.524917e-009
1.318256738556400e+001,7.350673e-008,4.524917e-009
1.348962882591646e+001,7.272099e-008,4.524917e-009
1.380384264602877e+001,7.194485e-008,4.524917e-009
1.412537544622746e+001,7.117819e-008,4.524917e-009
1.445439770745919e+001,7.042093e-008,4.524917e-009
1.479108388168199e+001,6.967295e-008,4.524917e-009
1.513561248436199e+001,6.893416e-008,4.524917e-009
1.548816618912472e+001,6.820445e-008,4.524917e-009
1.584893192461104e+001,6.748373e-008,4.524916e-009
1.621810097358920e+001,6.677190e-008,4.524916e-009
1.659586907437550e+001,6.606887e-008,4.524916e-009
1.698243652461734e+001,6.537453e-008,4.524916e-009
1.737800828749365e+001,6.468881e-008,4.524916e-009
1.778279410038912e+001,6.401159e-008,4.524916e-009
1.819700858609972e+001,6.334279e-008,4.524916e-009
1.862087136662855e+001,6.268232e-008,4.524916e-009
1.905460717963235e+001,6.203010e-008,4.524916e-009
1.949844599758032e+001,6.138602e-008,4.524916e-009
1.995262314968866e+001,6.075001e-008,4.524916e-009
2.041737944669515e+001,6.012198e-008,4.524916e-009
2.089296130854025e+001,5.950183e-008,4.524915e-009
2.137962089502218e+001,5.888950e-008,4.524915e-009
2.187761623949537e+001,5.828489e-008,4.524915e-009
2.238721138568324e+001,5.768792e-008,4.524915e-009
2.290867652767757e+001,5.709851e-008,4.524915e-009
2.344228815319906e+001,5.651658e-008,4.524915e-009
2.398832919019474e+001,5.594205e-008,4.524914e-009
2.454708915685013e+001,5.537483e-008,4.524914e-009
2.511886431509563e+001,5.481486e-008,4.524914e-009
2.570395782768846e+001,5.426205e-008,4.524914e-009
2.630267991895363e+001,5.371633e-008,4.524913e-009
2.691534803926897e+001,5.317762e-008,4.524913e-009
2.754228703338147e+001,5.264585e-008,4.524913e-009
2.818382931264434e+001,5.212094e-008,4.524912e-009
2.884031503126585e+001,5.160281e-008,4.524912e-009
2.951209226666364e+001,5.109142e-008,4.524912e-009
3.019951720401994e+001,5.058666e-008,4.524912e-009
3.090295432513568e+001,5.008848e-008,4.524912e-009
3.162277660168356e+001,4.959681e-008,4.524911e-009
3.235936569296258e+001,4.911157e-008,4.524911e-009
3.311311214825886e+001,4.863270e-008,4.524911e-009
3.388441561392000e+001,4.816013e-008,4.524910e-009
3.467368504525290e+001,4.769380e-008,4.524910e-009
3.548133892335728e+001,4.723363e-008,4.524909e-009
3.630780547700986e+001,4.677956e-008,4.524909e-009
3.715352290971697e+001,4.633153e-008,4.524908e-009
3.801893963205583e+001,4.588948e-008,4.524908e-009
3.890451449942776e+001,4.545333e-008,4.524908e-009
3.981071705534941e+001,4.502303e-008,4.524907e-009
4.073802778041095e+001,4.459851e-008,4.524906e-009
4.168693834703321e+001,4.417971e-008,4.524906e-009
4.265795188015893e+001,4.376658e-008,4.524905e-009
4.365158322401625e+001,4.335905e-008,4.524904e-009
4.466835921509595e+001,4.295705e-008,4.524904e-009
4.570881896148713e+001,4.256055e-008,4.524903e-009
4.677351412871944e+001,4.216946e-008,4.524903e-009
4.786300923226344e+001,4.178374e-008,4.524902e-009
4.897788193684422e+001,4.140334e-008,4.524901e-009
5.011872336272682e+001,4.102818e-008,4.524900e-009
5.128613839913606e+001,4.065821e-008,4.524899e-009
5.248074602497682e+001,4.029339e-008,4.524898e-009
5.370317963702482e+001,3.993365e-008,4.524897e-009
5.495408738576199e+001,3.957894e-008,4.524896e-009
5.623413251903443e+001,3.922921e-008,4.524896e-009
5.754399373371521e+001,3.888440e-008,4.524894e-009
5.888436553555840e+001,3.854446e-008,4.524893e-009
6.025595860743526e+001,3.820933e-008,4.524892e-009
6.165950018614769e+001,3.787897e-008,4.524891e-009
6.309573444801878e+001,3.755332e-008,4.524889e-009
6.456542290346499e+001,3.723233e-008,4.524888e-009
6.606934480075903e+001,3.691595e-008,4.524887e-009
6.760829753919759e+001,3.660413e-008,4.524885e-009
6.918309709189305e+001,3.629683e-008,4.524884e-009
7.079457843841317e+001,3.599398e-008,4.524882e-009
7.244359600749837e+001,3.569554e-008,4.524880e-009
7.413102413009111e+001,3.540147e-008,4.524878e-009
7.585775750291771e+001,3.511171e-008,4.524876e-009
7.762471166286849e+001,3.482621e-008,4.524875e-009
7.943282347242744e+001,3.454494e-008,4.524872e-009
8.128305161640920e+001,3.426784e-008,4.524870e-009
8.317637711026636e+001,3.399487e-008,4.524868e-009
8.511380382023688e+001,3.372597e-008,4.524866e-009
8.709635899560728e+001,3.346111e-008,4.524863e-009
8.912509381337374e+001,3.320023e-008,4.524860e-009
9.120108393559013e+001,3.294330e-008,4.524858e-009
9.332543007969824e+001,3.269026e-008,4.524855e-009
9.549925860214270e+001,3.244108e-008,4.524852e-009
9.772372209558016e+001,3.219571e-008,4.524849e-009
9.999999999999906e+001,3.195410e-008,4.524846e-009
1.023292992280745e+002,3.171622e-008,4.524842e-009
1.047128548050890e+002,3.148201e-008,4.524839e-009
1.071519305237596e+002,3.125144e-008,4.524835e-009
1.096478196143175e+002,3.102446e-008,4.524831e-009
1.122018454301953e+002,3.080103e-008,4.524827e-009
1.148153621496872e+002,3.058111e-008,4.524823e-009
1.174897554939518e+002,3.036466e-008,4.524818e-009
1.202264434617402e+002,3.015163e-008,4.524814e-009
1.230268770812370e+002,2.994199e-008,4.524809e-009
1.258925411794155e+002,2.973569e-008,4.524804e-009
1.288249551693122e+002,2.953270e-008,4.524798e-009
1.318256738556394e+002,2.933297e-008,4.524793e-009
1.348962882591640e+002,2.913646e-008,4.524787e-009
1.380384264602871e+002,2.894314e-008,4.524781e-009
1.412537544622740e+002,2.875296e-008,4.524774e-009
1.445439770745913e+002,2.856589e-008,4.524768e-009
1.479108388168193e+002,2.838189e-008,4.524761e-009
1.513561248436193e+002,2.820092e-008,4.524753e-009
1.548816618912466e+002,2.802293e-008,4.524746e-009
1.584893192461097e+002,2.784790e-008,4.524737e-009
1.621810097358913e+002,2.767578e-008,4.524729e-009
1.659586907437543e+002,2.750654e-008,4.524721e-009
1.698243652461727e+002,2.734014e-008,4.524711e-009
1.737800828749357e+002,2.717655e-008,4.524702e-009
1.778279410038904e+002,2.701572e-008,4.524692e-009
1.819700858609964e+002,2.685762e-008,4.524681e-009
1.862087136662848e+002,2.670222e-008,4.524670e-009
1.905460717963227e+002,2.654948e-008,4.524659e-009
1.949844599758025e+002,2.639936e-008,4.524647e-009
1.995262314968859e+002,2.625182e-008,4.524634e-009
2.041737944669508e+002,2.610684e-008,4.524621e-009
2.089296130854017e+002,2.596438e-008,4.524608e-009
2.137962089502209e+002,2.582441e-008,4.524594e-009
2.187761623949529e+002,2.568688e-008,4.524578e-009
2.238721138568316e+002,2.555177e-008,4.524563e-009
2.290867652767749e+002,2.541904e-008,4.524547e-009
2.344228815319897e+002,2.528866e-008,4.524530e-009
2.398832919019465e+002,2.516059e-008,4.524512e-009
2.454708915685004e+002,2.503481e-008,4.524494e-009
2.511886431509553e+002,2.491127e-008,4.524474e-009
2.570395782768836e+002,2.478996e-008,4.524454e-009
2.630267991895354e+002,2.467083e-008,4.524433e-009
2.691534803926887e+002,2.455385e-008,4.524411e-009
2.754228703338137e+002,2.443900e-008,4.524388e-009
2.818382931264423e+002,2.432624e-008,4.524364e-009
2.884031503126574e+002,2.421554e-008,4.524340e-009
2.951209226666354e+002,2.410686e-008,4.524313e-009
3.019951720401983e+002,2.400019e-008,4.524286e-009
3.090295432513557e+002,2.389548e-008,4.524258e-009
3.162277660168345e+002,2.379272e-008,4.524229e-009
3.235936569296247e+002,2.369186e-008,4.524198e-009
3.311311214825875e+002,2.359288e-008,4.524166e-009
3.388441561391988e+002,2.349576e-008,4.524133e-009
3.467368504525278e+002,2.340045e-008,4.524098e-009
3.548133892335715e+002,2.330694e-008,4.524062e-009
3.630780547700973e+002,2.321520e-008,4.524025e-009
3.715352290971684e+002,2.312519e-008,4.523986e-009
3.801893963205569e+002,2.303689e-008,4.523946e-009
3.890451449942762e+002,2.295028e-008,4.523904e-009
3.981071705534927e+002,2.286532e-008,4.523860e-009
4.073802778041081e+002,2.278199e-008,4.523815e-009
4.168693834703306e+002,2.270026e-008,4.523768e-009
4.265795188015877e+002,2.262011e-008,4.523718e-009
4.365158322401609e+002,2.254151e-008,4.523668e-009
4.466835921509579e+002,2.246443e-008,4.523615e-009
4.570881896148697e+002,2.238885e-008,4.523560e-009
4.677351412871927e+002,2.231475e-008,4.523503e-009
4.786300923226327e+002,2.224209e-008,4.523445e-009
4.897788193684405e+002,2.217087e-008,4.523384e-009
5.011872336272664e+002,2.210104e-008,4.523321e-009
5.128613839913588e+002,2.203259e-008,4.523256e-009
5.248074602497665e+002,2.196549e-008,4.523188e-009
5.370317963702464e+002,2.189972e-008,4.523119e-009
5.495408738576181e+002,2.183526e-008,4.523047e-009
5.623413251903425e+002,2.177209e-008,4.522973e-009
5.754399373371501e+002,2.171018e-008,4.522896e-009
5.888436553555820e+002,2.164950e-008,4.522817e-009
6.025595860743506e+002,2.159005e-008,4.522735e-009
6.165950018614748e+002,2.153179e-008,4.522651e-009
6.309573444801856e+002,2.147471e-008,4.522565e-009
6.456542290346476e+002,2.141878e-008,4.522476e-009
6.606934480075879e+002,2.136398e-008,4.522384e-009
6.760829753919735e+002,2.131030e-008,4.522290e-009
