frequency,V(onoise),V(r1)
1.000000000000000e-001,5.017868e-006,3.676959e-009
1.023292992280754e-001,4.960430e-006,3.676959e-009
1.047128548050900e-001,4.903648e-006,3.676959e-009
1.071519305237607e-001,4.847517e-006,3.676959e-009
1.096478196143185e-001,4.792028e-006,3.676959e-009
1.122018454301964e-001,4.737175e-006,3.676959e-009
1.148153621496883e-001,4.682949e-006,3.676959e-009
1.174897554939530e-001,4.629344e-006,3.676959e-009
1.202264434617413e-001,4.576353e-006,3.676959e-009
1.230268770812382e-001,4.523968e-006,3.676959e-009
1.258925411794167e-001,4.472183e-006,3.676959e-009
1.288249551693134e-001,4.420991e-006,3.676959e-009
1.318256738556407e-001,4.370384e-006,3.676959e-009
1.348962882591653e-001,4.320357e-006,3.676959e-009
1.380384264602884e-001,4.270903e-006,3.676959e-009
1.412537544622754e-001,4.222015e-006,3.676959e-009
1.445439770745927e-001,4.173686e-006,3.676959e-009
1.479108388168207e-001,4.125910e-006,3.676959e-009
1.513561248436207e-001,4.078682e-006,3.676959e-009
1.548816618912480e-001,4.031994e-006,3.676959e-009
1.584893192461112e-001,3.985841e-006,3.676959e-009
1.621810097358929e-001,3.940216e-006,3.676959e-009
1.659586907437559e-001,3.895113e-006,3.676959e-009
1.698243652461743e-001,3.850526e-006,3.676959e-009
1.737800828749374e-001,3.806450e-006,3.676959e-009
1.778279410038921e-001,3.762878e-006,3.676959e-009
1.819700858609982e-001,3.719805e-006,3.676959e-009
1.862087136662866e-001,3.677226e-006,3.676959e-009
1.905460717963245e-001,3.635133e-006,3.676959e-009
1.949844599758043e-001,3.593522e-006,3.676959e-009
1.995262314968878e-001,3.552388e-006,3.676959e-009
2.041737944669527e-001,3.511725e-006,3.676959e-009
2.089296130854037e-001,3.471527e-006,3.676959e-009
2.137962089502230e-001,3.431789e-006,3.676959e-009
2.187761623949550e-001,3.392506e-006,3.676959e-009
2.238721138568337e-001,3.353673e-006,3.676959e-009
2.290867652767770e-001,3.315284e-006,3.676959e-009
2.344228815319919e-001,3.277335e-006,3.676959e-009
2.398832919019487e-001,3.239820e-006,3.676959e-009
2.454708915685027e-001,3.202735e-006,3.676959e-009
2.511886431509577e-001,3.166074e-006,3.676959e-009
2.570395782768861e-001,3.129833e-006,3.676959e-009
2.630267991895379e-001,3.094006e-006,3.676959e-009
2.691534803926912e-001,3.058590e-006,3.676959e-009
2.754228703338163e-001,3.023579e-006,3.676959e-009
2.818382931264450e-001,2.988969e-006,3.676959e-009
2.884031503126602e-001,2.954755e-006,3.676959e-009
2.951209226666382e-001,2.920933e-006,3.676959e-009
3.019951720402012e-001,2.887497e-006,3.676959e-009
3.090295432513586e-001,2.854445e-006,3.676959e-009
3.162277660168375e-001,2.821771e-006,3.676959e-009
3.235936569296278e-001,2.789471e-006,3.676959e-009
3.311311214825907e-001,2.757541e-006,3.676959e-009
3.388441561392021e-001,2.725976e-006,3.676959e-009
3.467368504525312e-001,2.694773e-006,3.676959e-009
3.548133892335750e-001,2.663926e-006,3.676959e-009
3.630780547701009e-001,2.633433e-006,3.676959e-009
3.715352290971720e-001,2.603289e-006,3.676959e-009
3.801893963205607e-001,2.573490e-006,3.676959e-009
3.890451449942800e-001,2.544032e-006,3.676959e-009
3.981071705534967e-001,2.514912e-006,3.676959e-009
4.073802778041121e-001,2.486124e-006,3.676959e-009
4.168693834703348e-001,2.457667e-006,3.676959e-009
4.265795188015920e-001,2.429535e-006,3.676959e-009
4.365158322401653e-001,2.401724e-006,3.676959e-009
4.466835921509624e-001,2.374233e-006,3.676959e-009
4.570881896148742e-001,2.347056e-006,3.676959e-009
4.677351412871974e-001,2.320190e-006,3.676959e-009
4.786300923226375e-001,2.293632e-006,3.676959e-009
4.897788193684454e-001,2.267377e-006,3.676959e-009
5.011872336272715e-001,2.241424e-006,3.676959e-009
5.128613839913641e-001,2.215767e-006,3.676959e-009
5.248074602497718e-001,2.190404e-006,3.676959e-009
5.370317963702519e-001,2.165331e-006,3.676959e-009
5.495408738576236e-001,2.140546e-006,3.676959e-009
5.623413251903481e-001,2.116044e-006,3.676959e-009
5.754399373371559e-001,2.091822e-006,3.676959e-009
5.888436553555879e-001,2.067878e-006,3.676959e-009
6.025595860743567e-001,2.044208e-006,3.676959e-009
6.165950018614811e-001,2.020809e-006,3.676959e-009
6.309573444801921e-001,1.997678e-006,3.676959e-009
6.456542290346544e-001,1.974811e-006,3.676959e-009
6.606934480075949e-001,1.952207e-006,3.676959e-009
6.760829753919806e-001,1.929861e-006,3.676959e-009
6.918309709189353e-001,1.907771e-006,3.676959e-009
7.079457843841367e-001,1.885933e-006,3.676959e-009
7.244359600749888e-001,1.864346e-006,3.676959e-009
7.413102413009162e-001,1.843006e-006,3.676959e-009
7.585775750291823e-001,1.821910e-006,3.676959e-009
7.762471166286903e-001,1.801056e-006,3.676959e-009
7.943282347242799e-001,1.780440e-006,3.676959e-009
8.128305161640976e-001,1.760060e-006,3.676959e-009
8.317637711026693e-001,1.739914e-006,3.676959e-009
8.511380382023747e-001,1.719998e-006,3.676959e-009
8.709635899560788e-001,1.700310e-006,3.676959e-009
8.912509381337437e-001,1.680848e-006,3.676959e-009
9.120108393559078e-001,1.661609e-006,3.676959e-009
9.332543007969890e-001,1.642589e-006,3.676959e-009
9.549925860214339e-001,1.623788e-006,3.676959e-009
9.772372209558086e-001,1.605201e-006,3.676959e-009
9.999999999999978e-001,1.586828e-006,3.676959e-009
1.023292992280752e+000,1.568664e-006,3.676959e-009
1.047128548050897e+000,1.550709e-006,3.676959e-009
1.071519305237604e+000,1.532959e-006,3.676959e-009
1.096478196143182e+000,1.515412e-006,3.676959e-009
1.122018454301961e+000,1.498067e-006,3.676959e-009
1.148153621496880e+000,1.480920e-006,3.676959e-009
1.174897554939527e+000,1.463969e-006,3.676959e-009
1.202264434617410e+000,1.447212e-006,3.676959e-009
1.230268770812378e+000,1.430647e-006,3.676959e-009
1.258925411794164e+000,1.414271e-006,3.676959e-009
1.288249551693131e+000,1.398083e-006,3.676959e-009
1.318256738556404e+000,1.382081e-006,3.676959e-009
1.348962882591650e+000,1.366261e-006,3.676959e-009
1.380384264602881e+000,1.350623e-006,3.676959e-009
1.412537544622750e+000,1.335164e-006,3.676959e-009
1.445439770745923e+000,1.319881e-006,3.676959e-009
1.479108388168203e+000,1.304774e-006,3.676959e-009
1.513561248436204e+000,1.289840e-006,3.676959e-009
1.548816618912477e+000,1.275076e-006,3.676959e-009
1.584893192461109e+000,1.260482e-006,3.676959e-009
1.621810097358925e+000,1.246054e-006,3.676959e-009
1.659586907437555e+000,1.231792e-006,3.676959e-009
1.698243652461739e+000,1.217693e-006,3.676959e-009
1.737800828749370e+000,1.203756e-006,3.676959e-009
1.778279410038917e+000,1.189978e-006,3.676959e-009
1.819700858609977e+000,1.176357e-006,3.676959e-009
1.862087136662861e+000,1.162893e-006,3.676959e-009
1.905460717963241e+000,1.149583e-006,3.676959e-009
1.949844599758039e+000,1.136425e-006,3.676959e-009
1.995262314968873e+000,1.123418e-006,3.676959e-009
2.041737944669523e+000,1.110560e-006,3.676959e-009
2.089296130854033e+000,1.097849e-006,3.676959e-009
2.137962089502225e+000,1.085283e-006,3.676959e-009
2.187761623949545e+000,1.072861e-006,3.676959e-009
2.238721138568332e+000,1.060582e-006,3.676959e-009
2.290867652767766e+000,1.048443e-006,3.676959e-009
2.344228815319914e+000,1.036443e-006,3.676959e-009
2.398832919019482e+000,1.024580e-006,3.676959e-009
2.454708915685022e+000,1.012854e-006,3.676959e-009
2.511886431509572e+000,1.001261e-006,3.676959e-009
2.570395782768855e+000,9.898013e-007,3.676959e-009
2.630267991895373e+000,9.784727e-007,3.676959e-009
2.691534803926906e+000,9.672738e-007,3.676959e-009
2.754228703338157e+000,9.562032e-007,3.676959e-009
2.818382931264444e+000,9.452592e-007,3.676959e-009
2.884031503126595e+000,9.344405e-007,3.676959e-009
2.951209226666375e+000,9.237457e-007,3.676959e-009
3.019951720402005e+000,9.131734e-007,3.676959e-009
3.090295432513579e+000,9.027221e-007,3.676959e-009
3.162277660168367e+000,8.923905e-007,3.676959e-009
3.235936569296270e+000,8.821771e-007,3.676959e-009
3.311311214825898e+000,8.720806e-007,3.676959e-009
3.388441561392012e+000,8.620998e-007,3.676959e-009
3.467368504525302e+000,8.522332e-007,3.676959e-009
3.548133892335740e+000,8.424796e-007,3.676959e-009
3.630780547700999e+000,8.328377e-007,3.676959e-009
3.715352290971711e+000,8.233061e-007,3.676959e-009
3.801893963205597e+000,8.138837e-007,3.676959e-009
3.890451449942790e+000,8.045691e-007,3.676959e-009
3.981071705534956e+000,7.953612e-007,3.676959e-009
4.073802778041110e+000,7.862588e-007,3.676959e-009
4.168693834703337e+000,7.772605e-007,3.676959e-009
4.265795188015909e+000,7.683653e-007,3.676959e-009
4.365158322401642e+000,7.595719e-007,3.676959e-009
4.466835921509612e+000,7.508792e-007,3.676959e-009
4.570881896148731e+000,7.422860e-007,3.676959e-009
4.677351412871962e+000,7.337913e-007,3.676959e-009
4.786300923226363e+000,7.253938e-007,3.676959e-009
4.897788193684440e+000,7.170924e-007,3.676959e-009
5.011872336272701e+000,7.088860e-007,3.676959e-009
5.128613839913625e+000,7.007737e-007,3.676959e-009
5.248074602497702e+000,6.927542e-007,3.676959e-009
5.370317963702503e+000,6.848266e-007,3.676959e-009
5.495408738576220e+000,6.769897e-007,3.676959e-009
5.623413251903465e+000,6.692426e-007,3.676959e-009
5.754399373371542e+000,6.615841e-007,3.676959e-009
5.888436553555861e+000,6.540134e-007,3.676959e-009
6.025595860743549e+000,6.465293e-007,3.676959e-009
6.165950018614792e+000,6.391310e-007,3.676958e-009
6.309573444801902e+000,6.318173e-007,3.676959e-009
6.456542290346524e+000,6.245874e-007,3.676959e-009
6.606934480075928e+000,6.174403e-007,3.676959e-009
6.760829753919785e+000,6.103751e-007,3.676958e-009
6.918309709189331e+000,6.033907e-007,3.676958e-009
7.079457843841344e+000,5.964863e-007,3.676958e-009
7.244359600749864e+000,5.896610e-007,3.676958e-009
7.413102413009137e+000,5.829139e-007,3.676958e-009
7.585775750291798e+000,5.762440e-007,3.676958e-009
7.762471166286877e+000,5.696505e-007,3.676958e-009
7.943282347242774e+000,5.631325e-007,3.676958e-009
8.128305161640951e+000,5.566891e-007,3.676958e-009
8.317637711026666e+000,5.503195e-007,3.676958e-009
8.511380382023720e+000,5.440228e-007,3.676958e-009
8.709635899560761e+000,5.377984e-007,3.676958e-009
8.912509381337408e+000,5.316451e-007,3.676958e-009
9.120108393559049e+000,5.255623e-007,3.676958e-009
9.332543007969861e+000,5.195492e-007,3.676958e-009
9.549925860214309e+000,5.136050e-007,3.676958e-009
9.772372209558055e+000,5.077288e-007,3.676958e-009
9.999999999999947e+000,5.019199e-007,3.676958e-009
1.023292992280749e+001,4.961776e-007,3.676958e-009
1.047128548050894e+001,4.905011e-007,3.676958e-009
1.071519305237601e+001,4.848895e-007,3.676958e-009
1.096478196143179e+001,4.793422e-007,3.676958e-009
1.122018454301957e+001,4.738585e-007,3.676958e-009
1.148153621496876e+001,4.684375e-007,3.676958e-009
1.174897554939523e+001,4.630787e-007,3.676958e-009
1.202264434617406e+001,4.577813e-007,3.676958e-009
1.230268770812375e+001,4.525445e-007,3.676958e-009
1.258925411794160e+001,4.473677e-007,3.676958e-009
1.288249551693127e+001,4.422502e-007,3.676958e-009
1.318256738556400e+001,4.371913e-007,3.676958e-009
1.348962882591646e+001,4.321903e-007,3.676958e-009
1.380384264602877e+001,4.272467e-007,3.676958e-009
1.412537544622746e+001,4.223597e-007,3.676958e-009
1.445439770745919e+001,4.175286e-007,3.676958e-009
1.479108388168199e+001,4.127530e-007,3.676958e-009
1.513561248436199e+001,4.080320e-007,3.676958e-009
1.548816618912472e+001,4.033651e-007,3.676958e-009
1.584893192461104e+001,3.987517e-007,3.676958e-009
1.621810097358920e+001,3.941911e-007,3.676958e-009
1.659586907437550e+001,3.896828e-007,3.676958e-009
1.698243652461734e+001,3.852261e-007,3.676958e-009
1.737800828749365e+001,3.808205e-007,3.676958e-009
1.778279410038912e+001,3.764653e-007,3.676958e-009
1.819700858609972e+001,3.721601e-007,3.676958e-009
1.862087136662855e+001,3.679042e-007,3.676958e-009
1.905460717963235e+001,3.636970e-007,3.676958e-009
1.949844599758032e+001,3.595381e-007,3.676958e-009
1.995262314968866e+001,3.554268e-007,3.676958e-009
2.041737944669515e+001,3.513627e-007,3.676958e-009
2.089296130854025e+001,3.473451e-007,3.676958e-009
2.137962089502218e+001,3.433735e-007,3.676958e-009
2.187761623949537e+001,3.394475e-007,3.676958e-009
2.238721138568324e+001,3.355664e-007,3.676958e-009
2.290867652767757e+001,3.317299e-007,3.676958e-009
2.344228815319906e+001,3.279373e-007,3.676958e-009
2.398832919019474e+001,3.241881e-007,3.676958e-009
2.454708915685013e+001,3.204820e-007,3.676958e-009
2.511886431509563e+001,3.168183e-007,3.676958e-009
2.570395782768846e+001,3.131966e-007,3.676958e-009
2.630267991895363e+001,3.096164e-007,3.676958e-009
2.691534803926897e+001,3.060773e-007,3.676958e-009
2.754228703338147e+001,3.025787e-007,3.676957e-009
2.818382931264434e+001,2.991203e-007,3.676957e-009
2.884031503126585e+001,2.957015e-007,3.676957e-009
2.951209226666364e+001,2.923219e-007,3.676957e-009
3.019951720401994e+001,2.889810e-007,3.676957e-009
3.090295432513568e+001,2.856784e-007,3.676957e-009
3.162277660168356e+001,2.824137e-007,3.676957e-009
3.235936569296258e+001,2.791865e-007,3.676957e-009
3.311311214825886e+001,2.759962e-007,3.676957e-009
3.388441561392000e+001,2.728425e-007,3.676957e-009
3.467368504525290e+001,2.697250e-007,3.676957e-009
3.548133892335728e+001,2.666432e-007,3.676957e-009
3.630780547700986e+001,2.635968e-007,3.676957e-009
3.715352290971697e+001,2.605854e-007,3.676957e-009
3.801893963205583e+001,2.576084e-007,3.676957e-009
3.890451449942776e+001,2.546656e-007,3.676957e-009
3.981071705534941e+001,2.517566e-007,3.676957e-009
4.073802778041095e+001,2.488809e-007,3.676956e-009
4.168693834703321e+001,2.460382e-007,3.676956e-009
4.265795188015893e+001,2.432282e-007,3.676956e-009
4.365158322401625e+001,2.404504e-007,3.676956e-009
4.466835921509595e+001,2.377044e-007,3.676956e-009
4.570881896148713e+001,2.349899e-007,3.676956e-009
4.677351412871944e+001,2.323066e-007,3.676956e-009
4.786300923226344e+001,2.296541e-007,3.676956e-009
4.897788193684422e+001,2.270321e-007,3.676955e-009
5.011872336272682e+001,2.244401e-007,3.676955e-009
5.128613839913606e+001,2.218779e-007,3.676955e-009
5.248074602497682e+001,2.193450e-007,3.676955e-009
5.370317963702482e+001,2.168413e-007,3.676955e-009
5.495408738576199e+001,2.143663e-007,3.676955e-009
5.623413251903443e+001,2.119197e-007,3.676955e-009
5.754399373371521e+001,2.095012e-007,3.676954e-009
5.888436553555840e+001,2.071105e-007,3.676954e-009
6.025595860743526e+001,2.047472e-007,3.676954e-009
6.165950018614769e+001,2.024110e-007,3.676954e-009
6.309573444801878e+001,2.001017e-007,3.676953e-009
6.456542290346499e+001,1.978189e-007,3.676953e-009
6.606934480075903e+001,1.955624e-007,3.676953e-009
6.760829753919759e+001,1.933317e-007,3.676953e-009
6.918309709189305e+001,1.911267e-007,3.676953e-009
7.079457843841317e+001,1.889470e-007,3.676952e-009
7.244359600749837e+001,1.867923e-007,3.676952e-009
7.413102413009111e+001,1.846625e-007,3.676952e-009
7.585775750291771e+001,1.825570e-007,3.676951e-009
7.762471166286849e+001,1.804758e-007,3.676951e-009
7.943282347242744e+001,1.784185e-007,3.676951e-009
8.128305161640920e+001,1.763849e-007,3.676950e-009
8.317637711026636e+001,1.743746e-007,3.676950e-009
8.511380382023688e+001,1.723875e-007,3.676949e-009
8.709635899560728e+001,1.704231e-007,3.676949e-009
8.912509381337374e+001,1.684814e-007,3.676949e-009
9.120108393559013e+001,1.665620e-007,3.676948e-009
9.332543007969824e+001,1.646647e-007,3.676947e-009
9.549925860214270e+001,1.627892e-007,3.676947e-009
9.772372209558016e+001,1.609353e-007,3.676947e-009
9.999999999999906e+001,1.591028e-007,3.676946e-009
1.023292992280745e+002,1.572913e-007,3.676945e-009
1.047128548050890e+002,1.555006e-007,3.676945e-009
1.071519305237596e+002,1.537306e-007,3.676944e-009
1.096478196143175e+002,1.519809e-007,3.676943e-009
1.122018454301953e+002,1.502514e-007,3.676943e-009
1.148153621496872e+002,1.485418e-007,3.676942e-009
1.174897554939518e+002,1.468519e-007,3.676941e-009
1.202264434617402e+002,1.451815e-007,3.676940e-009
1.230268770812370e+002,1.435302e-007,3.676939e-009
1.258925411794155e+002,1.418981e-007,3.676939e-009
1.288249551693122e+002,1.402847e-007,3.676938e-009
1.318256738556394e+002,1.386899e-007,3.676937e-009
1.348962882591640e+002,1.371135e-007,3.676936e-009
1.380384264602871e+002,1.355553e-007,3.676935e-009
1.412537544622740e+002,1.340150e-007,3.676933e-009
1.445439770745913e+002,1.324925e-007,3.676932e-009
1.479108388168193e+002,1.309876e-007,3.676931e-009
1.513561248436193e+002,1.295000e-007,3.676930e-009
1.548816618912466e+002,1.280296e-007,3.676928e-009
1.584893192461097e+002,1.265761e-007,3.676927e-009
1.621810097358913e+002,1.251394e-007,3.676925e-009
1.659586907437543e+002,1.237193e-007,3.676924e-009
1.698243652461727e+002,1.223156e-007,3.676922e-009
1.737800828749357e+002,1.209281e-007,3.676921e-009
1.778279410038904e+002,1.195567e-007,3.676919e-009
1.819700858609964e+002,1.182011e-007,3.676917e-009
1.862087136662848e+002,1.168611e-007,3.676915e-009
1.905460717963227e+002,1.155367e-007,3.676913e-009
1.949844599758025e+002,1.142275e-007,3.676911e-009
1.995262314968859e+002,1.129335e-007,3.676908e-009
2.041737944669508e+002,1.116544e-007,3.676906e-009
2.089296130854017e+002,1.103902e-007,3.676904e-009
2.137962089502209e+002,1.091406e-007,3.676901e-009
2.187761623949529e+002,1.079054e-007,3.676898e-009
2.238721138568316e+002,1.066845e-007,3.676895e-009
2.290867652767749e+002,1.054778e-007,3.676893e-009
2.344228815319897e+002,1.042851e-007,3.676889e-009
2.398832919019465e+002,1.031061e-007,3.676886e-009
2.454708915685004e+002,1.019409e-007,3.676883e-009
2.511886431509553e+002,1.007891e-007,3.676879e-009
2.570395782768836e+002,9.965070e-008,3.676875e-009
2.630267991895354e+002,9.852549e-008,3.676871e-009
2.691534803926887e+002,9.741335e-008,3.676867e-009
2.754228703338137e+002,9.631410e-008,3.676863e-009
2.818382931264423e+002,9.522763e-008,3.676859e-009
2.884031503126574e+002,9.415376e-008,3.676854e-009
2.951209226666354e+002,9.309237e-008,3.676849e-009
3.019951720401983e+002,9.204332e-008,3.676844e-009
3.090295432513557e+002,9.100646e-008,3.676838e-009
3.162277660168345e+002,8.998165e-008,3.676833e-009
3.235936569296247e+002,8.896876e-008,3.676827e-009
3.311311214825875e+002,8.796766e-008,3.676821e-009
3.388441561391988e+002,8.697822e-008,3.676814e-009
3.467368504525278e+002,8.600029e-008,3.676807e-009
3.548133892335715e+002,8.503376e-008,3.676800e-009
3.630780547700973e+002,8.407849e-008,3.676793e-009
3.715352290971684e+002,8.313435e-008,3.676785e-009
3.801893963205569e+002,8.220123e-008,3.676777e-009
3.890451449942762e+002,8.127900e-008,3.676768e-009
3.981071705534927e+002,8.036753e-008,3.676759e-009
4.073802778041081e+002,7.946669e-008,3.676750e-009
4.168693834703306e+002,7.857639e-008,3.676740e-009
4.265795188015877e+002,7.769649e-008,3.676730e-009
4.365158322401609e+002,7.682688e-008,3.676719e-009
4.466835921509579e+002,7.596744e-008,3.676708e-009
4.570881896148697e+002,7.511807e-008,3.676696e-009
4.677351412871927e+002,7.427863e-008,3.676683e-009
4.786300923226327e+002,7.344903e-008,3.676671e-009
4.897788193684405e+002,7.262915e-008,3.676657e-009
5.011872336272664e+002,7.181888e-008,3.676643e-009
5.128613839913588e+002,7.101813e-008,3.676628e-009
5.248074602497665e+002,7.022677e-008,3.676612e-009
5.370317963702464e+002,6.944470e-008,3.676596e-009
5.495408738576181e+002,6.867183e-008,3.676579e-009
5.623413251903425e+002,6.790805e-008,3.676561e-009
5.754399373371501e+002,6.715324e-008,3.676542e-009
5.888436553555820e+002,6.640733e-008,3.676522e-009
6.025595860743506e+002,6.567020e-008,3.676502e-009
6.165950018614748e+002,6.494175e-008,3.676480e-009
6.309573444801856e+002,6.422190e-008,3.676458e-009
6.456542290346476e+002,6.351054e-008,3.676434e-009
6.606934480075879e+002,6.280758e-008,3.676410e-009
6.760829753919735e+002,6.211292e-008,3.676384e-009
