Freq.	V(vout)
1.00000000000000e-002	(1.19837298805104e+002dB,1.79999991611070e+002°)
1.02329299228075e-002	(1.19837298805104e+002dB,1.79999991415667e+002°)
1.04712854805090e-002	(1.19837298805103e+002dB,1.79999991215712e+002°)
1.07151930523761e-002	(1.19837298805103e+002dB,1.79999991011099e+002°)
1.09647819614318e-002	(1.19837298805102e+002dB,1.79999990801721e+002°)
1.12201845430196e-002	(1.19837298805102e+002dB,1.79999990587466e+002°)
1.14815362149688e-002	(1.19837298805101e+002dB,1.79999990368220e+002°)
1.17489755493953e-002	(1.19837298805098e+002dB,1.79999990143867e+002°)
1.20226443461741e-002	(1.19837298805097e+002dB,1.79999989914288e+002°)
1.23026877081238e-002	(1.19837298805097e+002dB,1.79999989679361e+002°)
1.25892541179417e-002	(1.19837298805096e+002dB,1.79999989438963e+002°)
1.28824955169313e-002	(1.19837298805095e+002dB,1.79999989192965e+002°)
1.31825673855641e-002	(1.19837298805095e+002dB,1.79999988941236e+002°)
1.34896288259165e-002	(1.19837298805094e+002dB,1.79999988683645e+002°)
1.38038426460288e-002	(1.19837298805094e+002dB,1.79999988420053e+002°)
1.41253754462275e-002	(1.19837298805093e+002dB,1.79999988150321e+002°)
1.44543977074593e-002	(1.19837298805092e+002dB,1.79999987874307e+002°)
1.47910838816821e-002	(1.19837298805091e+002dB,1.79999987591863e+002°)
1.51356124843621e-002	(1.19837298805091e+002dB,1.79999987302840e+002°)
1.54881661891248e-002	(1.19837298805090e+002dB,1.79999987007086e+002°)
1.58489319246111e-002	(1.19837298805089e+002dB,1.79999986704442e+002°)
1.62181009735893e-002	(1.19837298805088e+002dB,1.79999986394748e+002°)
1.65958690743756e-002	(1.19837298805087e+002dB,1.79999986077841e+002°)
1.69824365246174e-002	(1.19837298805086e+002dB,1.79999985753553e+002°)
1.73780082874937e-002	(1.19837298805085e+002dB,1.79999985421710e+002°)
1.77827941003892e-002	(1.19837298805084e+002dB,1.79999985082138e+002°)
1.81970085860998e-002	(1.19837298805083e+002dB,1.79999984734657e+002°)
1.86208713666287e-002	(1.19837298805082e+002dB,1.79999984379081e+002°)
1.90546071796325e-002	(1.19837298805080e+002dB,1.79999984015223e+002°)
1.94984459975804e-002	(1.19837298805079e+002dB,1.79999983642890e+002°)
1.99526231496888e-002	(1.19837298805074e+002dB,1.79999983261884e+002°)
2.04173794466953e-002	(1.19837298805073e+002dB,1.79999982872003e+002°)
2.08929613085404e-002	(1.19837298805071e+002dB,1.79999982473041e+002°)
2.13796208950223e-002	(1.19837298805070e+002dB,1.79999982064785e+002°)
2.18776162394955e-002	(1.19837298805068e+002dB,1.79999981647021e+002°)
2.23872113856834e-002	(1.19837298805066e+002dB,1.79999981219525e+002°)
2.29086765276777e-002	(1.19837298805065e+002dB,1.79999980782071e+002°)
2.34422881531992e-002	(1.19837298805063e+002dB,1.79999980334428e+002°)
2.39883291901949e-002	(1.19837298805061e+002dB,1.79999979876358e+002°)
2.45470891568503e-002	(1.19837298805059e+002dB,1.79999979407618e+002°)
2.51188643150958e-002	(1.19837298805056e+002dB,1.79999978927960e+002°)
2.57039578276886e-002	(1.19837298805051e+002dB,1.79999978437129e+002°)
2.63026799189538e-002	(1.19837298805048e+002dB,1.79999977934866e+002°)
2.69153480392691e-002	(1.19837298805046e+002dB,1.79999977420903e+002°)
2.75422870333816e-002	(1.19837298805043e+002dB,1.79999976894968e+002°)
2.81838293126445e-002	(1.19837298805040e+002dB,1.79999976356783e+002°)
2.88403150312660e-002	(1.19837298805038e+002dB,1.79999975806061e+002°)
2.95120922666638e-002	(1.19837298805035e+002dB,1.79999975242512e+002°)
3.01995172040201e-002	(1.19837298805031e+002dB,1.79999974665836e+002°)
3.09029543251359e-002	(1.19837298805025e+002dB,1.79999974075728e+002°)
3.16227766016838e-002	(1.19837298805021e+002dB,1.79999973471874e+002°)
3.23593656929628e-002	(1.19837298805018e+002dB,1.79999972853954e+002°)
3.31131121482591e-002	(1.19837298805014e+002dB,1.79999972221642e+002°)
3.38844156139202e-002	(1.19837298805010e+002dB,1.79999971574601e+002°)
3.46736850452531e-002	(1.19837298805002e+002dB,1.79999970912488e+002°)
3.54813389233575e-002	(1.19837298804998e+002dB,1.79999970234953e+002°)
3.63078054770101e-002	(1.19837298804993e+002dB,1.79999969541636e+002°)
3.71535229097172e-002	(1.19837298804989e+002dB,1.79999968832169e+002°)
3.80189396320561e-002	(1.19837298804984e+002dB,1.79999968106177e+002°)
3.89045144994280e-002	(1.19837298804975e+002dB,1.79999967363275e+002°)
3.98107170553497e-002	(1.19837298804970e+002dB,1.79999966603068e+002°)
4.07380277804112e-002	(1.19837298804964e+002dB,1.79999965825153e+002°)
4.16869383470335e-002	(1.19837298804954e+002dB,1.79999965029119e+002°)
4.26579518801592e-002	(1.19837298804948e+002dB,1.79999964214542e+002°)
4.36515832240165e-002	(1.19837298804942e+002dB,1.79999963380992e+002°)
4.46683592150962e-002	(1.19837298804931e+002dB,1.79999962528026e+002°)
4.57088189614874e-002	(1.19837298804924e+002dB,1.79999961655191e+002°)
4.67735141287197e-002	(1.19837298804916e+002dB,1.79999960762026e+002°)
4.78630092322637e-002	(1.19837298804905e+002dB,1.79999959848056e+002°)
4.89778819368445e-002	(1.19837298804897e+002dB,1.79999958912797e+002°)
5.01187233627271e-002	(1.19837298804885e+002dB,1.79999957955753e+002°)
5.12861383991364e-002	(1.19837298804876e+002dB,1.79999956976417e+002°)
5.24807460249771e-002	(1.19837298804866e+002dB,1.79999955974269e+002°)
5.37031796370252e-002	(1.19837298804853e+002dB,1.79999954948778e+002°)
5.49540873857623e-002	(1.19837298804842e+002dB,1.79999953899400e+002°)
5.62341325190348e-002	(1.19837298804828e+002dB,1.79999952825579e+002°)
5.75439937337156e-002	(1.19837298804813e+002dB,1.79999951726746e+002°)
5.88843655355588e-002	(1.19837298804801e+002dB,1.79999950602317e+002°)
6.02559586074356e-002	(1.19837298804782e+002dB,1.79999949451698e+002°)
6.16595001861481e-002	(1.19837298804769e+002dB,1.79999948274276e+002°)
6.30957344480192e-002	(1.19837298804752e+002dB,1.79999947069429e+002°)
6.45654229034654e-002	(1.19837298804734e+002dB,1.79999945836518e+002°)
6.60693448007594e-002	(1.19837298804716e+002dB,1.79999944574889e+002°)
6.76082975391980e-002	(1.19837298804700e+002dB,1.79999943283872e+002°)
6.91830970918935e-002	(1.19837298804680e+002dB,1.79999941962784e+002°)
7.07945784384136e-002	(1.19837298804659e+002dB,1.79999940610923e+002°)
7.24435960074988e-002	(1.19837298804631e+002dB,1.79999939227574e+002°)
7.41310241300916e-002	(1.19837298804609e+002dB,1.79999937812002e+002°)
7.58577575029182e-002	(1.19837298804585e+002dB,1.79999936363458e+002°)
7.76247116628690e-002	(1.19837298804561e+002dB,1.79999934881172e+002°)
7.94328234724279e-002	(1.19837298804536e+002dB,1.79999933364360e+002°)
8.12830516164097e-002	(1.19837298804510e+002dB,1.79999931812216e+002°)
8.31763771102669e-002	(1.19837298804482e+002dB,1.79999930223919e+002°)
8.51138038202374e-002	(1.19837298804454e+002dB,1.79999928598625e+002°)
8.70963589956078e-002	(1.19837298804421e+002dB,1.79999926935473e+002°)
8.91250938133743e-002	(1.19837298804390e+002dB,1.79999925233582e+002°)
9.12010839355907e-002	(1.19837298804358e+002dB,1.79999923492048e+002°)
9.33254300796988e-002	(1.19837298804321e+002dB,1.79999921709949e+002°)
9.54992586021433e-002	(1.19837298804283e+002dB,1.79999919886340e+002°)
9.77237220955808e-002	(1.19837298804246e+002dB,1.79999918020253e+002°)
9.99999999999997e-002	(1.19837298804205e+002dB,1.79999916110699e+002°)
1.02329299228075e-001	(1.19837298804162e+002dB,1.79999914156667e+002°)
1.04712854805090e-001	(1.19837298804114e+002dB,1.79999912157118e+002°)
1.07151930523760e-001	(1.19837298804071e+002dB,1.79999910110995e+002°)
1.09647819614318e-001	(1.19837298804019e+002dB,1.79999908017211e+002°)
1.12201845430196e-001	(1.19837298803969e+002dB,1.79999905874657e+002°)
1.14815362149688e-001	(1.19837298803917e+002dB,1.79999903682196e+002°)
1.17489755493953e-001	(1.19837298803862e+002dB,1.79999901438666e+002°)
1.20226443461741e-001	(1.19837298803802e+002dB,1.79999899142878e+002°)
1.23026877081238e-001	(1.19837298803743e+002dB,1.79999896793613e+002°)
1.25892541179416e-001	(1.19837298803678e+002dB,1.79999894389628e+002°)
1.28824955169313e-001	(1.19837298803611e+002dB,1.79999891929646e+002°)
1.31825673855640e-001	(1.19837298803540e+002dB,1.79999889412365e+002°)
1.34896288259165e-001	(1.19837298803467e+002dB,1.79999886836448e+002°)
1.38038426460288e-001	(1.19837298803388e+002dB,1.79999884200530e+002°)
1.41253754462275e-001	(1.19837298803306e+002dB,1.79999881503214e+002°)
1.44543977074592e-001	(1.19837298803223e+002dB,1.79999878743069e+002°)
1.47910838816820e-001	(1.19837298803134e+002dB,1.79999875918633e+002°)
1.51356124843620e-001	(1.19837298803041e+002dB,1.79999873028406e+002°)
1.54881661891248e-001	(1.19837298802945e+002dB,1.79999870070858e+002°)
1.58489319246111e-001	(1.19837298802845e+002dB,1.79999867044420e+002°)
1.62181009735892e-001	(1.19837298802727e+002dB,1.79999863947486e+002°)
1.65958690743755e-001	(1.19837298802618e+002dB,1.79999860778416e+002°)
1.69824365246174e-001	(1.19837298802501e+002dB,1.79999857535529e+002°)
1.73780082874937e-001	(1.19837298802380e+002dB,1.79999854217105e+002°)
1.77827941003892e-001	(1.19837298802251e+002dB,1.79999850821386e+002°)
1.81970085860998e-001	(1.19837298802116e+002dB,1.79999847346569e+002°)
1.86208713666286e-001	(1.19837298801976e+002dB,1.79999843790814e+002°)
1.90546071796324e-001	(1.19837298801830e+002dB,1.79999840152235e+002°)
1.94984459975804e-001	(1.19837298801675e+002dB,1.79999836428903e+002°)
1.99526231496887e-001	(1.19837298801514e+002dB,1.79999832618842e+002°)
2.04173794466952e-001	(1.19837298801343e+002dB,1.79999828720035e+002°)
2.08929613085403e-001	(1.19837298801168e+002dB,1.79999824730412e+002°)
2.13796208950222e-001	(1.19837298800983e+002dB,1.79999820647859e+002°)
2.18776162394954e-001	(1.19837298800777e+002dB,1.79999816470211e+002°)
2.23872113856833e-001	(1.19837298800573e+002dB,1.79999812195253e+002°)
2.29086765276776e-001	(1.19837298800362e+002dB,1.79999807820719e+002°)
2.34422881531991e-001	(1.19837298800141e+002dB,1.79999803344289e+002°)
2.39883291901948e-001	(1.19837298799909e+002dB,1.79999798763589e+002°)
2.45470891568502e-001	(1.19837298799666e+002dB,1.79999794076191e+002°)
2.51188643150957e-001	(1.19837298799408e+002dB,1.79999789279610e+002°)
2.57039578276885e-001	(1.19837298799142e+002dB,1.79999784371302e+002°)
2.63026799189537e-001	(1.19837298798856e+002dB,1.79999779348665e+002°)
2.69153480392690e-001	(1.19837298798562e+002dB,1.79999774209035e+002°)
2.75422870333815e-001	(1.19837298798255e+002dB,1.79999768949688e+002°)
2.81838293126444e-001	(1.19837298797930e+002dB,1.79999763567836e+002°)
2.88403150312659e-001	(1.19837298797595e+002dB,1.79999758060624e+002°)
2.95120922666637e-001	(1.19837298797240e+002dB,1.79999752425132e+002°)
3.01995172040200e-001	(1.19837298796868e+002dB,1.79999746658373e+002°)
3.09029543251358e-001	(1.19837298796477e+002dB,1.79999740757289e+002°)
3.16227766016837e-001	(1.19837298796070e+002dB,1.79999734718752e+002°)
3.23593656929627e-001	(1.19837298795647e+002dB,1.79999728539558e+002°)
3.31131121482590e-001	(1.19837298795198e+002dB,1.79999722216433e+002°)
3.38844156139201e-001	(1.19837298794730e+002dB,1.79999715746023e+002°)
3.46736850452530e-001	(1.19837298794247e+002dB,1.79999709124898e+002°)
3.54813389233574e-001	(1.19837298793734e+002dB,1.79999702349548e+002°)
3.63078054770100e-001	(1.19837298793194e+002dB,1.79999695416379e+002°)
3.71535229097171e-001	(1.19837298792632e+002dB,1.79999688321716e+002°)
3.80189396320559e-001	(1.19837298792045e+002dB,1.79999681061797e+002°)
3.89045144994279e-001	(1.19837298791424e+002dB,1.79999673632774e+002°)
3.98107170553495e-001	(1.19837298790781e+002dB,1.79999666030706e+002°)
4.07380277804111e-001	(1.19837298790109e+002dB,1.79999658251563e+002°)
4.16869383470333e-001	(1.19837298789397e+002dB,1.79999650291221e+002°)
4.26579518801591e-001	(1.19837298788660e+002dB,1.79999642145458e+002°)
4.36515832240164e-001	(1.19837298787887e+002dB,1.79999633809957e+002°)
4.46683592150961e-001	(1.19837298787072e+002dB,1.79999625280297e+002°)
4.57088189614873e-001	(1.19837298786228e+002dB,1.79999616551956e+002°)
4.67735141287196e-001	(1.19837298785334e+002dB,1.79999607620305e+002°)
4.78630092322636e-001	(1.19837298784407e+002dB,1.79999598480610e+002°)
4.89778819368444e-001	(1.19837298783425e+002dB,1.79999589128025e+002°)
5.01187233627270e-001	(1.19837298782408e+002dB,1.79999579557590e+002°)
5.12861383991362e-001	(1.19837298781334e+002dB,1.79999569764231e+002°)
5.24807460249770e-001	(1.19837298780216e+002dB,1.79999559742755e+002°)
5.37031796370250e-001	(1.19837298779044e+002dB,1.79999549487850e+002°)
5.49540873857622e-001	(1.19837298777811e+002dB,1.79999538994077e+002°)
5.62341325190346e-001	(1.19837298776532e+002dB,1.79999528255873e+002°)
5.75439937337154e-001	(1.19837298775181e+002dB,1.79999517267545e+002°)
5.88843655355586e-001	(1.19837298773770e+002dB,1.79999506023266e+002°)
6.02559586074355e-001	(1.19837298772289e+002dB,1.79999494517074e+002°)
6.16595001861479e-001	(1.19837298770741e+002dB,1.79999482742869e+002°)
6.30957344480190e-001	(1.19837298769129e+002dB,1.79999470694408e+002°)
6.45654229034652e-001	(1.19837298767431e+002dB,1.79999458365302e+002°)
6.60693448007592e-001	(1.19837298765652e+002dB,1.79999445749015e+002°)
6.76082975391978e-001	(1.19837298763795e+002dB,1.79999432838857e+002°)
6.91830970918933e-001	(1.19837298761850e+002dB,1.79999419627984e+002°)
7.07945784384134e-001	(1.19837298759810e+002dB,1.79999406109390e+002°)
7.24435960074986e-001	(1.19837298757675e+002dB,1.79999392275909e+002°)
7.41310241300913e-001	(1.19837298755435e+002dB,1.79999378120205e+002°)
7.58577575029179e-001	(1.19837298753098e+002dB,1.79999363634772e+002°)
7.76247116628687e-001	(1.19837298750647e+002dB,1.79999348811932e+002°)
7.94328234724277e-001	(1.19837298748077e+002dB,1.79999333643823e+002°)
8.12830516164095e-001	(1.19837298745392e+002dB,1.79999318122405e+002°)
8.31763771102666e-001	(1.19837298742581e+002dB,1.79999302239447e+002°)
8.51138038202372e-001	(1.19837298739628e+002dB,1.79999285986528e+002°)
8.70963589956076e-001	(1.19837298736543e+002dB,1.79999269355032e+002°)
8.91250938133740e-001	(1.19837298733314e+002dB,1.79999252336139e+002°)
9.12010839355904e-001	(1.19837298729929e+002dB,1.79999234920826e+002°)
9.33254300796986e-001	(1.19837298726385e+002dB,1.79999217099859e+002°)
9.54992586021430e-001	(1.19837298722679e+002dB,1.79999198863790e+002°)
9.77237220955805e-001	(1.19837298718793e+002dB,1.79999180202949e+002°)
9.99999999999994e-001	(1.19837298714722e+002dB,1.79999161107443e+002°)
1.02329299228075e+000	(1.19837298710457e+002dB,1.79999141567147e+002°)
1.04712854805089e+000	(1.19837298705998e+002dB,1.79999121571701e+002°)
1.07151930523760e+000	(1.19837298701330e+002dB,1.79999101110503e+002°)
1.09647819614318e+000	(1.19837298696438e+002dB,1.79999080172704e+002°)
1.12201845430196e+000	(1.19837298691316e+002dB,1.79999058747202e+002°)
1.14815362149688e+000	(1.19837298685949e+002dB,1.79999036822639e+002°)
1.17489755493952e+000	(1.19837298680333e+002dB,1.79999014387390e+002°)
1.20226443461741e+000	(1.19837298674459e+002dB,1.79998991429558e+002°)
1.23026877081237e+000	(1.19837298668305e+002dB,1.79998967936973e+002°)
1.25892541179416e+000	(1.19837298661857e+002dB,1.79998943897178e+002°)
1.28824955169313e+000	(1.19837298655104e+002dB,1.79998919297426e+002°)
1.31825673855640e+000	(1.19837298648033e+002dB,1.79998894124677e+002°)
1.34896288259165e+000	(1.19837298640628e+002dB,1.79998868365581e+002°)
1.38038426460288e+000	(1.19837298632876e+002dB,1.79998842006483e+002°)
1.41253754462275e+000	(1.19837298624763e+002dB,1.79998815033407e+002°)
1.44543977074592e+000	(1.19837298616261e+002dB,1.79998787432051e+002°)
1.47910838816820e+000	(1.19837298607365e+002dB,1.79998759187781e+002°)
1.51356124843620e+000	(1.19837298598045e+002dB,1.79998730285623e+002°)
1.54881661891247e+000	(1.19837298588287e+002dB,1.79998700710252e+002°)
1.58489319246110e+000	(1.19837298578064e+002dB,1.79998670445987e+002°)
1.62181009735892e+000	(1.19837298567361e+002dB,1.79998639476783e+002°)
1.65958690743755e+000	(1.19837298556162e+002dB,1.79998607786220e+002°)
1.69824365246173e+000	(1.19837298544426e+002dB,1.79998575357495e+002°)
1.73780082874936e+000	(1.19837298532140e+002dB,1.79998542173416e+002°)
1.77827941003891e+000	(1.19837298519277e+002dB,1.79998508216388e+002°)
1.81970085860997e+000	(1.19837298505808e+002dB,1.79998473468407e+002°)
1.86208713666286e+000	(1.19837298491698e+002dB,1.79998437911050e+002°)
1.90546071796323e+000	(1.19837298476922e+002dB,1.79998401525466e+002°)
1.94984459975803e+000	(1.19837298461463e+002dB,1.79998364292363e+002°)
1.99526231496887e+000	(1.19837298445267e+002dB,1.79998326192000e+002°)
2.04173794466952e+000	(1.19837298428310e+002dB,1.79998287204177e+002°)
2.08929613085403e+000	(1.19837298410550e+002dB,1.79998247308224e+002°)
2.13796208950222e+000	(1.19837298391953e+002dB,1.79998206482988e+002°)
2.18776162394954e+000	(1.19837298372481e+002dB,1.79998164706824e+002°)
2.23872113856832e+000	(1.19837298352093e+002dB,1.79998121957584e+002°)
2.29086765276776e+000	(1.19837298330744e+002dB,1.79998078212603e+002°)
2.34422881531990e+000	(1.19837298308391e+002dB,1.79998033448687e+002°)
2.39883291901947e+000	(1.19837298284980e+002dB,1.79997987642105e+002°)
2.45470891568501e+000	(1.19837298260459e+002dB,1.79997940768571e+002°)
2.51188643150956e+000	(1.19837298234799e+002dB,1.79997892803233e+002°)
2.57039578276884e+000	(1.19837298207921e+002dB,1.79997843720663e+002°)
2.63026799189536e+000	(1.19837298179779e+002dB,1.79997793494837e+002°)
2.69153480392690e+000	(1.19837298150303e+002dB,1.79997742099128e+002°)
2.75422870333815e+000	(1.19837298119444e+002dB,1.79997689506288e+002°)
2.81838293126443e+000	(1.19837298087124e+002dB,1.79997635688434e+002°)
2.88403150312658e+000	(1.19837298053290e+002dB,1.79997580617034e+002°)
2.95120922666636e+000	(1.19837298017864e+002dB,1.79997524262891e+002°)
3.01995172040199e+000	(1.19837297980759e+002dB,1.79997466596130e+002°)
3.09029543251357e+000	(1.19837297941903e+002dB,1.79997407586177e+002°)
3.16227766016835e+000	(1.19837297901230e+002dB,1.79997347201749e+002°)
3.23593656929626e+000	(1.19837297858624e+002dB,1.79997285410833e+002°)
3.31131121482589e+000	(1.19837297814018e+002dB,1.79997222180671e+002°)
3.38844156139200e+000	(1.19837297767319e+002dB,1.79997157477743e+002°)
3.46736850452529e+000	(1.19837297718409e+002dB,1.79997091267747e+002°)
3.54813389233573e+000	(1.19837297667189e+002dB,1.79997023515583e+002°)
3.63078054770098e+000	(1.19837297613563e+002dB,1.79996954185334e+002°)
3.71535229097170e+000	(1.19837297557408e+002dB,1.79996883240246e+002°)
3.80189396320558e+000	(1.19837297498602e+002dB,1.79996810642710e+002°)
3.89045144994278e+000	(1.19837297437030e+002dB,1.79996736354240e+002°)
3.98107170553494e+000	(1.19837297372557e+002dB,1.79996660335456e+002°)
4.07380277804109e+000	(1.19837297305042e+002dB,1.79996582546059e+002°)
4.16869383470332e+000	(1.19837297234354e+002dB,1.79996502944813e+002°)
4.26579518801589e+000	(1.19837297160319e+002dB,1.79996421489522e+002°)
4.36515832240162e+000	(1.19837297082806e+002dB,1.79996338137007e+002°)
4.46683592150959e+000	(1.19837297001642e+002dB,1.79996252843084e+002°)
4.57088189614871e+000	(1.19837296916646e+002dB,1.79996165562541e+002°)
4.67735141287194e+000	(1.19837296827643e+002dB,1.79996076249113e+002°)
4.78630092322634e+000	(1.19837296734451e+002dB,1.79995984855457e+002°)
4.89778819368442e+000	(1.19837296636862e+002dB,1.79995891333130e+002°)
5.01187233627268e+000	(1.19837296534679e+002dB,1.79995795632561e+002°)
5.12861383991361e+000	(1.19837296427682e+002dB,1.79995697703023e+002°)
5.24807460249768e+000	(1.19837296315640e+002dB,1.79995597492610e+002°)
5.37031796370248e+000	(1.19837296198315e+002dB,1.79995494948209e+002°)
5.49540873857620e+000	(1.19837296075460e+002dB,1.79995390015468e+002°)
5.62341325190344e+000	(1.19837295946819e+002dB,1.79995282638773e+002°)
5.75439937337152e+000	(1.19837295812114e+002dB,1.79995172761213e+002°)
