Freq.	V(vout)
1.00000000000000e-001	(1.19999999961423e+002dB,-5.39999998401124e-003°)
1.02329299228075e-001	(1.19999999959605e+002dB,-5.52578214118381e-003°)
1.04712854805090e-001	(1.19999999957701e+002dB,-5.65449414111731e-003°)
1.07151930523761e-001	(1.19999999955708e+002dB,-5.78620422861260e-003°)
1.09647819614319e-001	(1.19999999953620e+002dB,-5.92098223809591e-003°)
1.12201845430196e-001	(1.19999999951435e+002dB,-6.05889963064588e-003°)
1.14815362149688e-001	(1.19999999949146e+002dB,-6.20002953188320e-003°)
1.17489755493953e-001	(1.19999999946749e+002dB,-6.34444677074273e-003°)
1.20226443461741e-001	(1.19999999944240e+002dB,-6.49222791914875e-003°)
1.23026877081238e-001	(1.19999999941612e+002dB,-6.64345133261440e-003°)
1.25892541179417e-001	(1.19999999938860e+002dB,-6.79819719178673e-003°)
1.28824955169313e-001	(1.19999999935978e+002dB,-6.95654754495956e-003°)
1.31825673855641e-001	(1.19999999932961e+002dB,-7.11858635157647e-003°)
1.34896288259165e-001	(1.19999999929802e+002dB,-7.28439952674718e-003°)
1.38038426460288e-001	(1.19999999926493e+002dB,-7.45407498680085e-003°)
1.41253754462275e-001	(1.19999999923029e+002dB,-7.62770269590043e-003°)
1.44543977074593e-001	(1.19999999919402e+002dB,-7.80537471374273e-003°)
1.47910838816821e-001	(1.19999999915603e+002dB,-7.98718524436971e-003°)
1.51356124843621e-001	(1.19999999911626e+002dB,-8.17323068611660e-003°)
1.54881661891248e-001	(1.19999999907461e+002dB,-8.36360968272352e-003°)
1.58489319246111e-001	(1.19999999903099e+002dB,-8.55842317563761e-003°)
1.62181009735893e-001	(1.19999999898533e+002dB,-8.75777445753344e-003°)
1.65958690743756e-001	(1.19999999893751e+002dB,-8.96176922708009e-003°)
1.69824365246174e-001	(1.19999999888743e+002dB,-9.17051564498386e-003°)
1.73780082874937e-001	(1.19999999883500e+002dB,-9.38412439133642e-003°)
1.77827941003892e-001	(1.19999999878009e+002dB,-9.60270872429878e-003°)
1.81970085860998e-001	(1.19999999872260e+002dB,-9.82638454015210e-003°)
1.86208713666287e-001	(1.19999999866240e+002dB,-1.00552704347474e-002°)
1.90546071796325e-001	(1.19999999859936e+002dB,-1.02894877663863e-002°)
1.94984459975804e-001	(1.19999999853335e+002dB,-1.05291607201671e-002°)
1.99526231496888e-001	(1.19999999846423e+002dB,-1.07744163738287e-002°)
2.04173794466953e-001	(1.19999999839185e+002dB,-1.10253847651290e-002°)
2.08929613085404e-001	(1.19999999831606e+002dB,-1.12821989607926e-002°)
2.13796208950223e-001	(1.19999999823670e+002dB,-1.15449951270639e-002°)
2.18776162394955e-001	(1.19999999815360e+002dB,-1.18139126019047e-002°)
2.23872113856834e-001	(1.19999999806658e+002dB,-1.20890939688722e-002°)
2.29086765276777e-001	(1.19999999797546e+002dB,-1.23706851327188e-002°)
2.34422881531992e-001	(1.19999999788005e+002dB,-1.26588353967525e-002°)
2.39883291901949e-001	(1.19999999778014e+002dB,-1.29536975419989e-002°)
2.45470891568503e-001	(1.19999999767552e+002dB,-1.32554279082081e-002°)
2.51188643150958e-001	(1.19999999756597e+002dB,-1.35641864767470e-002°)
2.57039578276886e-001	(1.19999999745125e+002dB,-1.38801369554238e-002°)
2.63026799189538e-001	(1.19999999733114e+002dB,-1.42034468652875e-002°)
2.69153480392691e-001	(1.19999999720536e+002dB,-1.45342876294494e-002°)
2.75422870333816e-001	(1.19999999707365e+002dB,-1.48728346639736e-002°)
2.81838293126445e-001	(1.19999999693573e+002dB,-1.52192674708843e-002°)
2.88403150312660e-001	(1.19999999679132e+002dB,-1.55737697333401e-002°)
2.95120922666638e-001	(1.19999999664010e+002dB,-1.59365294130241e-002°)
3.01995172040201e-001	(1.19999999648175e+002dB,-1.63077388498039e-002°)
3.09029543251359e-001	(1.19999999631594e+002dB,-1.66875948637117e-002°)
3.16227766016838e-001	(1.19999999614232e+002dB,-1.70762988593003e-002°)
3.23593656929628e-001	(1.19999999596051e+002dB,-1.74740569324302e-002°)
3.31131121482591e-001	(1.19999999577013e+002dB,-1.78810799795432e-002°)
3.38844156139202e-001	(1.19999999557079e+002dB,-1.82975838094820e-002°)
3.46736850452531e-001	(1.19999999536204e+002dB,-1.87237892579143e-002°)
3.54813389233575e-001	(1.19999999514346e+002dB,-1.91599223044215e-002°)
3.63078054770101e-001	(1.19999999491458e+002dB,-1.96062141923154e-002°)
3.71535229097172e-001	(1.19999999467492e+002dB,-2.00629015512456e-002°)
3.80189396320561e-001	(1.19999999442395e+002dB,-2.05302265226627e-002°)
3.89045144994280e-001	(1.19999999416116e+002dB,-2.10084368882033e-002°)
3.98107170553497e-001	(1.19999999388598e+002dB,-2.14977862010664e-002°)
4.07380277804112e-001	(1.19999999359784e+002dB,-2.19985339204494e-002°)
4.16869383470335e-001	(1.19999999329612e+002dB,-2.25109455491150e-002°)
4.26579518801592e-001	(1.19999999298017e+002dB,-2.30352927741633e-002°)
4.36515832240165e-001	(1.19999999264934e+002dB,-2.35718536110820e-002°)
4.46683592150962e-001	(1.19999999230291e+002dB,-2.41209125511525e-002°)
4.57088189614874e-001	(1.19999999194016e+002dB,-2.46827607122887e-002°)
4.67735141287197e-001	(1.19999999156031e+002dB,-2.52576959933903e-002°)
4.78630092322638e-001	(1.19999999116256e+002dB,-2.58460232322901e-002°)
4.89778819368445e-001	(1.19999999074606e+002dB,-2.64480543673809e-002°)
5.01187233627271e-001	(1.19999999030994e+002dB,-2.70641086030074e-002°)
5.12861383991364e-001	(1.19999998985326e+002dB,-2.76945125787097e-002°)
5.24807460249772e-001	(1.19999998937506e+002dB,-2.83396005424092e-002°)
5.37031796370252e-001	(1.19999998887432e+002dB,-2.89997145276284e-002°)
5.49540873857624e-001	(1.19999998834998e+002dB,-2.96752045348386e-002°)
5.62341325190348e-001	(1.19999998780094e+002dB,-3.03664287170312e-002°)
5.75439937337156e-001	(1.19999998722601e+002dB,-3.10737535696117e-002°)
5.88843655355588e-001	(1.19999998662399e+002dB,-3.17975541247167e-002°)
6.02559586074357e-001	(1.19999998599360e+002dB,-3.25382141500566e-002°)
6.16595001861481e-001	(1.19999998533350e+002dB,-3.32961263523897e-002°)
6.30957344480192e-001	(1.19999998464229e+002dB,-3.40716925857365e-002°)
6.45654229034654e-001	(1.19999998391850e+002dB,-3.48653240644421e-002°)
6.60693448007595e-001	(1.19999998316061e+002dB,-3.56774415812027e-002°)
6.76082975391981e-001	(1.19999998236699e+002dB,-3.65084757301692e-002°)
6.91830970918935e-001	(1.19999998153597e+002dB,-3.73588671352481e-002°)
7.07945784384137e-001	(1.19999998066579e+002dB,-3.82290666837191e-002°)
7.24435960074989e-001	(1.19999997975460e+002dB,-3.91195357652944e-002°)
7.41310241300916e-001	(1.19999997880046e+002dB,-4.00307465167462e-002°)
7.58577575029182e-001	(1.19999997780136e+002dB,-4.09631820722315e-002°)
7.76247116628690e-001	(1.19999997675517e+002dB,-4.19173368194472e-002°)
7.94328234724280e-001	(1.19999997565967e+002dB,-4.28937166617519e-002°)
8.12830516164098e-001	(1.19999997451255e+002dB,-4.38928392863923e-002°)
8.31763771102669e-001	(1.19999997331136e+002dB,-4.49152344389770e-002°)
8.51138038202375e-001	(1.19999997205356e+002dB,-4.59614442043431e-002°)
8.70963589956079e-001	(1.19999997073649e+002dB,-4.70320232939641e-002°)
8.91250938133744e-001	(1.19999996935734e+002dB,-4.81275393400523e-002°)
9.12010839355908e-001	(1.19999996791320e+002dB,-4.92485731965103e-002°)
9.33254300796989e-001	(1.19999996640100e+002dB,-5.03957192468921e-002°)
9.54992586021434e-001	(1.19999996481752e+002dB,-5.15695857195371e-002°)
9.77237220955809e-001	(1.19999996315943e+002dB,-5.27707950100430e-002°)
9.99999999999998e-001	(1.19999996142318e+002dB,-5.39999840112493e-002°)
1.02329299228075e+000	(1.19999995960512e+002dB,-5.52578044509061e-002°)
1.04712854805090e+000	(1.19999995770136e+002dB,-5.65449232372075e-002°)
1.07151930523760e+000	(1.19999995570789e+002dB,-5.78620228123716e-002°)
1.09647819614318e+000	(1.19999995362047e+002dB,-5.92098015144559e-002°)
1.12201845430196e+000	(1.19999995143467e+002dB,-6.05889739475985e-002°)
1.14815362149688e+000	(1.19999994914586e+002dB,-6.20002713608823e-002°)
1.17489755493953e+000	(1.19999994674918e+002dB,-6.34444420360225e-002°)
1.20226443461741e+000	(1.19999994423955e+002dB,-6.49222516840827e-002°)
1.23026877081238e+000	(1.19999994161164e+002dB,-6.64344838514297e-002°)
1.25892541179416e+000	(1.19999993885988e+002dB,-6.79819403351433e-002°)
1.28824955169313e+000	(1.19999993597844e+002dB,-6.95654416080984e-002°)
1.31825673855640e+000	(1.19999993296120e+002dB,-7.11858272539486e-002°)
1.34896288259165e+000	(1.19999992980176e+002dB,-7.28439564122376e-002°)
1.38038426460288e+000	(1.19999992649342e+002dB,-7.45407082338769e-002°)
1.41253754462275e+000	(1.19999992302917e+002dB,-7.62769823472306e-002°)
1.44543977074592e+000	(1.19999991940165e+002dB,-7.80536993350530e-002°)
1.47910838816820e+000	(1.19999991560317e+002dB,-7.98718012225329e-002°)
1.51356124843620e+000	(1.19999991162567e+002dB,-8.17322519767029e-002°)
1.54881661891248e+000	(1.19999990746072e+002dB,-8.36360380174768e-002°)
1.58489319246111e+000	(1.19999990309949e+002dB,-8.55841687405885e-002°)
1.62181009735892e+000	(1.19999989853271e+002dB,-8.75776770527058e-002°)
1.65958690743756e+000	(1.19999989375071e+002dB,-8.96176199190056e-002°)
1.69824365246174e+000	(1.19999988874334e+002dB,-9.17050789234986e-002°)
1.73780082874937e+000	(1.19999988349998e+002dB,-9.38411608424003e-002°)
1.77827941003892e+000	(1.19999987800952e+002dB,-9.60269982308531e-002°)
1.81970085860998e+000	(1.19999987226029e+002dB,-9.82637500233080e-002°)
1.86208713666286e+000	(1.19999986624011e+002dB,-1.00552602147886e-001°)
1.90546071796324e+000	(1.19999985993621e+002dB,-1.02894768155042e-001°)
1.94984459975804e+000	(1.19999985333522e+002dB,-1.05291489860865e-001°)
1.99526231496887e+000	(1.19999984642313e+002dB,-1.07744038005360e-001°)
2.04173794466952e+000	(1.19999983918529e+002dB,-1.10253712926046e-001°)
2.08929613085403e+000	(1.19999983160634e+002dB,-1.12821845247241e-001°)
2.13796208950223e+000	(1.19999982367021e+002dB,-1.15449796585395e-001°)
2.18776162394955e+000	(1.19999981536006e+002dB,-1.18138960270841e-001°)
2.23872113856833e+000	(1.19999980665827e+002dB,-1.20890762086341e-001°)
2.29086765276777e+000	(1.19999979754638e+002dB,-1.23706661022832e-001°)
2.34422881531991e+000	(1.19999978800505e+002dB,-1.26588150052761e-001°)
2.39883291901948e+000	(1.19999977801407e+002dB,-1.29536756921414e-001°)
2.45470891568502e+000	(1.19999976755222e+002dB,-1.32554044956673e-001°)
2.51188643150957e+000	(1.19999975659732e+002dB,-1.35641613897614e-001°)
2.57039578276886e+000	(1.19999974512614e+002dB,-1.38801100742387e-001°)
2.63026799189537e+000	(1.19999973311434e+002dB,-1.42034180615836e-001°)
2.69153480392691e+000	(1.19999972053645e+002dB,-1.45342567657300e-001°)
2.75422870333816e+000	(1.19999970736578e+002dB,-1.48728015929085e-001°)
2.81838293126444e+000	(1.19999969357441e+002dB,-1.52192320346065e-001°)
2.88403150312660e+000	(1.19999967913307e+002dB,-1.55737317626919e-001°)
2.95120922666637e+000	(1.19999966401113e+002dB,-1.59364887267502e-001°)
3.01995172040200e+000	(1.19999964817653e+002dB,-1.63076952536855e-001°)
3.09029543251358e+000	(1.19999963159567e+002dB,-1.66875481496400e-001°)
3.16227766016837e+000	(1.19999961423339e+002dB,-1.70762488042828e-001°)
3.23593656929627e+000	(1.19999959605285e+002dB,-1.74740032975263e-001°)
3.31131121482590e+000	(1.19999957701550e+002dB,-1.78810225087235e-001°)
3.38844156139201e+000	(1.19999955708096e+002dB,-1.82975222284064e-001°)
3.46736850452530e+000	(1.19999953620694e+002dB,-1.87237232726221e-001°)
3.54813389233574e+000	(1.19999951434917e+002dB,-1.91598515999286e-001°)
3.63078054770100e+000	(1.19999949146128e+002dB,-1.96061384311105e-001°)
3.71535229097171e+000	(1.19999946749474e+002dB,-2.00628203716791e-001°)
3.80189396320560e+000	(1.19999944239870e+002dB,-2.05301395372205e-001°)
3.89045144994279e+000	(1.19999941611994e+002dB,-2.10083436816568e-001°)
3.98107170553496e+000	(1.19999938860271e+002dB,-2.14976863284909e-001°)
4.07380277804111e+000	(1.19999935978866e+002dB,-2.19984269050996e-001°)
4.16869383470334e+000	(1.19999932961666e+002dB,-2.25108308801501e-001°)
4.26579518801591e+000	(1.19999929802272e+002dB,-2.30351699042078e-001°)
4.36515832240164e+000	(1.19999926493983e+002dB,-2.35717219536135e-001°)
4.46683592150961e+000	(1.19999923029782e+002dB,-2.41207714777015e-001°)
4.57088189614873e+000	(1.19999919402321e+002dB,-2.46826095494391e-001°)
4.67735141287196e+000	(1.19999915603906e+002dB,-2.52575340195645e-001°)
4.78630092322636e+000	(1.19999911626481e+002dB,-2.58458496743051e-001°)
4.89778819368444e+000	(1.19999907461610e+002dB,-2.64478683967575e-001°)
5.01187233627270e+000	(1.19999903100459e+002dB,-2.70639093320155e-001°)
5.12861383991363e+000	(1.19999898533777e+002dB,-2.76942990561310e-001°)
5.24807460249770e+000	(1.19999893751880e+002dB,-2.83393717489966e-001°)
5.37031796370250e+000	(1.19999888744625e+002dB,-2.89994693712412e-001°)
5.49540873857622e+000	(1.19999883501391e+002dB,-2.96749418452291e-001°)
5.62341325190346e+000	(1.19999878011057e+002dB,-3.03661472402590e-001°)
5.75439937337154e+000	(1.19999872261980e+002dB,-3.10734519620583e-001°)
5.88843655355586e+000	(1.19999866241966e+002dB,-3.17972309466721e-001°)
6.02559586074355e+000	(1.19999859938245e+002dB,-3.25378678588474e-001°)
6.16595001861479e+000	(1.19999853337450e+002dB,-3.32957552950156e-001°)
6.30957344480190e+000	(1.19999846425579e+002dB,-3.40712949909803e-001°)
6.45654229034652e+000	(1.19999839187973e+002dB,-3.48648980344154e-001°)
6.60693448007593e+000	(1.19999831609283e+002dB,-3.56769850822872e-001°)
6.76082975391978e+000	(1.19999823673434e+002dB,-3.65079865833101e-001°)
6.91830970918933e+000	(1.19999815363596e+002dB,-3.73583430055532e-001°)
7.07945784384134e+000	(1.19999806662144e+002dB,-3.82285050693145e-001°)
7.24435960074986e+000	(1.19999797550623e+002dB,-3.91189339853829e-001°)
7.41310241300914e+000	(1.19999788009711e+002dB,-4.00301016988120e-001°)
7.58577575029180e+000	(1.19999778019172e+002dB,-4.09624911383298e-001°)
7.76247116628688e+000	(1.19999767557818e+002dB,-4.19165964715136e-001°)
7.94328234724277e+000	(1.19999756603462e+002dB,-4.28929233658610e-001°)
8.12830516164095e+000	(1.19999745132873e+002dB,-4.38919892558910e-001°)
8.31763771102667e+000	(1.19999733121725e+002dB,-4.49143236164114e-001°)
8.51138038202372e+000	(1.19999720544544e+002dB,-4.59604682420933e-001°)
8.70963589956076e+000	(1.19999707374658e+002dB,-4.70309775334941e-001°)
8.91250938133741e+000	(1.19999693584137e+002dB,-4.81264187896763e-001°)
9.12010839355905e+000	(1.19999679143735e+002dB,-4.92473725075693e-001°)
9.33254300796986e+000	(1.19999664022830e+002dB,-5.03944326882268e-001°)
9.54992586021431e+000	(1.19999648189356e+002dB,-5.15682071501357e-001°)
9.77237220955806e+000	(1.19999631609734e+002dB,-5.27693178497333e-001°)
9.99999999999995e+000	(1.19999614248807e+002dB,-5.39984012092948e-001°)
1.02329299228075e+001	(1.19999596069758e+002dB,-5.52561084523577e-001°)
1.04712854805089e+001	(1.19999577034039e+002dB,-5.65431059468484e-001°)
1.07151930523760e+001	(1.19999557101284e+002dB,-5.78600755560848e-001°)
1.09647819614318e+001	(1.19999536229225e+002dB,-5.92077149978292e-001°)
1.12201845430196e+001	(1.19999514373604e+002dB,-6.05867382115707e-001°)
1.14815362149688e+001	(1.19999491488077e+002dB,-6.19978757342174e-001°)
1.17489755493952e+001	(1.19999467524117e+002dB,-6.34418750843866e-001°)
1.20226443461741e+001	(1.19999442430913e+002dB,-6.49195011554802e-001°)
1.23026877081237e+001	(1.19999416155258e+002dB,-6.64315366177387e-001°)
1.25892541179416e+001	(1.19999388641439e+002dB,-6.79787823294707e-001°)
1.28824955169313e+001	(1.19999359831122e+002dB,-6.95620577576581e-001°)
1.31825673855640e+001	(1.19999329663220e+002dB,-7.11822014081393e-001°)
1.34896288259165e+001	(1.19999298073774e+002dB,-7.28400712655809e-001°)
1.38038426460288e+001	(1.19999264995809e+002dB,-7.45365452434459e-001°)
1.41253754462275e+001	(1.19999230359198e+002dB,-7.62725216441759e-001°)
1.44543977074592e+001	(1.19999194090510e+002dB,-7.80489196298049e-001°)
1.47910838816820e+001	(1.19999156112855e+002dB,-7.98666797032276e-001°)
1.51356124843620e+001	(1.19999116345725e+002dB,-8.17267642003478e-001°)
1.54881661891247e+001	(1.19999074704819e+002dB,-8.36301577933376e-001°)
1.58489319246110e+001	(1.19999031101864e+002dB,-8.55778680052407e-001°)
1.62181009735892e+001	(1.19998985444435e+002dB,-8.75709257361572e-001°)
1.65958690743755e+001	(1.19998937635752e+002dB,-8.96103858012495e-001°)
1.69824365246173e+001	(1.19998887574479e+002dB,-9.16973274808160e-001°)
1.73780082874936e+001	(1.19998835154510e+002dB,-9.38328550826781e-001°)
1.77827941003891e+001	(1.19998780264742e+002dB,-9.60180985171337e-001°)
1.81970085860997e+001	(1.19998722788842e+002dB,-9.82542138847306e-001°)
1.86208713666286e+001	(1.19998662605002e+002dB,-1.00542384077117e+000°)
1.90546071796323e+001	(1.19998599585678e+002dB,-1.02883819391235e+000°)
1.94984459975803e+001	(1.19998533597326e+002dB,-1.05279758157108e+000°)
1.99526231496887e+001	(1.19998464500113e+002dB,-1.07731467379510e+000°)
2.04173794466952e+001	(1.19998392147627e+002dB,-1.10240243393763e+000°)
2.08929613085403e+001	(1.19998316386565e+002dB,-1.12807412535953e+000°)
2.13796208950222e+001	(1.19998237056411e+002dB,-1.15434331827824e+000°)
2.18776162394954e+001	(1.19998153989095e+002dB,-1.18122389676636e+000°)
2.23872113856832e+001	(1.19998067008639e+002dB,-1.20873006590267e+000°)
2.29086765276776e+001	(1.19997975930789e+002dB,-1.23687635907821e+000°)
2.34422881531991e+001	(1.19997880562618e+002dB,-1.26567764546043e+000°)
2.39883291901947e+001	(1.19997780702129e+002dB,-1.29514913761815e+000°)
2.45470891568501e+001	(1.19997676137821e+002dB,-1.32530639931002e+000°)
2.51188643150956e+001	(1.19997566648247e+002dB,-1.35616535343953e+000°)
2.57039578276885e+001	(1.19997452001547e+002dB,-1.38774229017918e+000°)
2.63026799189536e+001	(1.19997331954958e+002dB,-1.42005387526667e+000°)
2.69153480392690e+001	(1.19997206254304e+002dB,-1.45311715847600e+000°)
2.75422870333815e+001	(1.19997074633461e+002dB,-1.48694958226602e+000°)
2.81838293126443e+001	(1.19996936813793e+002dB,-1.52156899060940e+000°)
2.88403150312659e+001	(1.19996792503572e+002dB,-1.55699363800456e+000°)
2.95120922666636e+001	(1.19996641397359e+002dB,-1.59324219867329e+000°)
3.01995172040199e+001	(1.19996483175364e+002dB,-1.63033377594660e+000°)
3.09029543251357e+001	(1.19996317502775e+002dB,-1.66828791184143e+000°)
3.16227766016836e+001	(1.19996144029050e+002dB,-1.70712459683062e+000°)
3.23593656929626e+001	(1.19995962387188e+002dB,-1.74686427980856e+000°)
3.31131121482589e+001	(1.19995772192950e+002dB,-1.78752787825479e+000°)
3.38844156139200e+001	(1.19995573044061e+002dB,-1.82913678859783e+000°)
3.46736850452529e+001	(1.19995364519361e+002dB,-1.87171289678111e+000°)
3.54813389233573e+001	(1.19995146177926e+002dB,-1.91527858903323e+000°)
3.63078054770099e+001	(1.19994917558140e+002dB,-1.95985676284407e+000°)
3.71535229097170e+001	(1.19994678176735e+002dB,-2.00547083814850e+000°)
3.80189396320558e+001	(1.19994427527772e+002dB,-2.05214476871914e+000°)
3.89045144994278e+001	(1.19994165081592e+002dB,-2.09990305376935e+000°)
3.98107170553494e+001	(1.19993890283701e+002dB,-2.14877074976744e+000°)
4.07380277804110e+001	(1.19993602553620e+002dB,-2.19877348246296e+000°)
4.16869383470332e+001	(1.19993301283668e+002dB,-2.24993745912539e+000°)
4.26579518801589e+001	(1.19992985837699e+002dB,-2.30228948099562e+000°)
4.36515832240163e+001	(1.19992655549775e+002dB,-2.35585695594989e+000°)
4.46683592150960e+001	(1.19992309722781e+002dB,-2.41066791137574e+000°)
4.57088189614871e+001	(1.19991947626976e+002dB,-2.46675100725917e+000°)
4.67735141287194e+001	(1.19991568498476e+002dB,-2.52413554948157e+000°)
4.78630092322634e+001	(1.19991171537671e+002dB,-2.58285150332473e+000°)
4.89778819368442e+001	(1.19990755907564e+002dB,-2.64292950718151e+000°)
5.01187233627268e+001	(1.19990320732043e+002dB,-2.70440088646955e+000°)
5.12861383991361e+001	(1.19989865094064e+002dB,-2.76729766774442e+000°)
5.24807460249768e+001	(1.19989388033758e+002dB,-2.83165259300816e+000°)
