frequency	V(onoise)	V(r1)	V(rl)
1.000000000000000e+000	8.243900e-007	8.142745e-007	1.287481e-007
1.023292992280754e+000	8.243900e-007	8.142745e-007	1.287481e-007
1.047128548050899e+000	8.243900e-007	8.142744e-007	1.287481e-007
1.071519305237606e+000	8.243900e-007	8.142744e-007	1.287481e-007
1.096478196143185e+000	8.243900e-007	8.142744e-007	1.287481e-007
1.122018454301963e+000	8.243900e-007	8.142744e-007	1.287481e-007
1.148153621496882e+000	8.243899e-007	8.142744e-007	1.287481e-007
1.174897554939529e+000	8.243899e-007	8.142744e-007	1.287481e-007
1.202264434617413e+000	8.243899e-007	8.142743e-007	1.287481e-007
1.230268770812381e+000	8.243899e-007	8.142743e-007	1.287481e-007
1.258925411794167e+000	8.243899e-007	8.142742e-007	1.287481e-007
1.288249551693134e+000	8.243898e-007	8.142742e-007	1.287481e-007
1.318256738556407e+000	8.243898e-007	8.142742e-007	1.287481e-007
1.348962882591653e+000	8.243898e-007	8.142742e-007	1.287481e-007
1.380384264602885e+000	8.243898e-007	8.142741e-007	1.287480e-007
1.412537544622754e+000	8.243897e-007	8.142741e-007	1.287480e-007
1.445439770745927e+000	8.243896e-007	8.142741e-007	1.287480e-007
1.479108388168207e+000	8.243896e-007	8.142740e-007	1.287480e-007
1.513561248436208e+000	8.243896e-007	8.142740e-007	1.287480e-007
1.548816618912481e+000	8.243895e-007	8.142740e-007	1.287480e-007
1.584893192461113e+000	8.243895e-007	8.142739e-007	1.287480e-007
1.621810097358929e+000	8.243895e-007	8.142739e-007	1.287480e-007
1.659586907437560e+000	8.243894e-007	8.142738e-007	1.287480e-007
1.698243652461744e+000	8.243894e-007	8.142738e-007	1.287480e-007
1.737800828749375e+000	8.243893e-007	8.142737e-007	1.287480e-007
1.778279410038922e+000	8.243893e-007	8.142737e-007	1.287480e-007
1.819700858609982e+000	8.243892e-007	8.142736e-007	1.287480e-007
1.862087136662866e+000	8.243892e-007	8.142736e-007	1.287480e-007
1.905460717963246e+000	8.243891e-007	8.142735e-007	1.287479e-007
1.949844599758044e+000	8.243890e-007	8.142734e-007	1.287479e-007
1.995262314968878e+000	8.243890e-007	8.142734e-007	1.287479e-007
2.041737944669527e+000	8.243889e-007	8.142733e-007	1.287479e-007
2.089296130854037e+000	8.243888e-007	8.142733e-007	1.287479e-007
2.137962089502230e+000	8.243887e-007	8.142732e-007	1.287479e-007
2.187761623949550e+000	8.243887e-007	8.142731e-007	1.287479e-007
2.238721138568337e+000	8.243886e-007	8.142730e-007	1.287479e-007
2.290867652767771e+000	8.243885e-007	8.142729e-007	1.287479e-007
2.344228815319919e+000	8.243884e-007	8.142728e-007	1.287478e-007
2.398832919019488e+000	8.243883e-007	8.142728e-007	1.287478e-007
2.454708915685028e+000	8.243882e-007	8.142727e-007	1.287478e-007
2.511886431509577e+000	8.243881e-007	8.142725e-007	1.287478e-007
2.570395782768860e+000	8.243880e-007	8.142724e-007	1.287478e-007
2.630267991895378e+000	8.243879e-007	8.142723e-007	1.287478e-007
2.691534803926912e+000	8.243878e-007	8.142722e-007	1.287477e-007
2.754228703338163e+000	8.243877e-007	8.142721e-007	1.287477e-007
2.818382931264450e+000	8.243875e-007	8.142720e-007	1.287477e-007
2.884031503126602e+000	8.243874e-007	8.142718e-007	1.287477e-007
2.951209226666381e+000	8.243873e-007	8.142717e-007	1.287477e-007
3.019951720402012e+000	8.243871e-007	8.142715e-007	1.287476e-007
3.090295432513586e+000	8.243869e-007	8.142714e-007	1.287476e-007
3.162277660168374e+000	8.243867e-007	8.142712e-007	1.287476e-007
3.235936569296277e+000	8.243866e-007	8.142711e-007	1.287476e-007
3.311311214825905e+000	8.243864e-007	8.142709e-007	1.287475e-007
3.388441561392020e+000	8.243862e-007	8.142707e-007	1.287475e-007
3.467368504525310e+000	8.243860e-007	8.142705e-007	1.287475e-007
3.548133892335748e+000	8.243858e-007	8.142703e-007	1.287474e-007
3.630780547701007e+000	8.243856e-007	8.142700e-007	1.287474e-007
3.715352290971719e+000	8.243854e-007	8.142698e-007	1.287474e-007
3.801893963205605e+000	8.243852e-007	8.142696e-007	1.287473e-007
3.890451449942799e+000	8.243849e-007	8.142694e-007	1.287473e-007
3.981071705534965e+000	8.243846e-007	8.142691e-007	1.287472e-007
4.073802778041119e+000	8.243844e-007	8.142688e-007	1.287472e-007
4.168693834703346e+000	8.243841e-007	8.142686e-007	1.287472e-007
4.265795188015918e+000	8.243838e-007	8.142683e-007	1.287471e-007
4.365158322401651e+000	8.243834e-007	8.142679e-007	1.287471e-007
4.466835921509622e+000	8.243831e-007	8.142676e-007	1.287470e-007
4.570881896148741e+000	8.243828e-007	8.142673e-007	1.287470e-007
4.677351412871972e+000	8.243824e-007	8.142669e-007	1.287469e-007
4.786300923226373e+000	8.243820e-007	8.142666e-007	1.287468e-007
4.897788193684452e+000	8.243816e-007	8.142662e-007	1.287468e-007
5.011872336272712e+000	8.243812e-007	8.142658e-007	1.287467e-007
5.128613839913638e+000	8.243808e-007	8.142653e-007	1.287466e-007
5.248074602497715e+000	8.243803e-007	8.142649e-007	1.287466e-007
5.370317963702516e+000	8.243799e-007	8.142644e-007	1.287465e-007
5.495408738576233e+000	8.243794e-007	8.142639e-007	1.287464e-007
5.623413251903478e+000	8.243788e-007	8.142634e-007	1.287464e-007
5.754399373371556e+000	8.243783e-007	8.142629e-007	1.287463e-007
5.888436553555876e+000	8.243778e-007	8.142623e-007	1.287462e-007
6.025595860743564e+000	8.243771e-007	8.142617e-007	1.287461e-007
6.165950018614807e+000	8.243765e-007	8.142611e-007	1.287460e-007
6.309573444801917e+000	8.243758e-007	8.142604e-007	1.287459e-007
6.456542290346540e+000	8.243751e-007	8.142597e-007	1.287458e-007
6.606934480075944e+000	8.243745e-007	8.142591e-007	1.287457e-007
6.760829753919802e+000	8.243737e-007	8.142583e-007	1.287455e-007
6.918309709189348e+000	8.243729e-007	8.142575e-007	1.287454e-007
7.079457843841362e+000	8.243721e-007	8.142567e-007	1.287453e-007
7.244359600749883e+000	8.243712e-007	8.142558e-007	1.287452e-007
7.413102413009157e+000	8.243703e-007	8.142550e-007	1.287450e-007
7.585775750291819e+000	8.243694e-007	8.142540e-007	1.287449e-007
7.762471166286898e+000	8.243684e-007	8.142530e-007	1.287447e-007
7.943282347242795e+000	8.243673e-007	8.142520e-007	1.287445e-007
8.128305161640972e+000	8.243662e-007	8.142509e-007	1.287444e-007
8.317637711026690e+000	8.243651e-007	8.142498e-007	1.287442e-007
8.511380382023743e+000	8.243639e-007	8.142486e-007	1.287440e-007
8.709635899560784e+000	8.243626e-007	8.142474e-007	1.287438e-007
8.912509381337431e+000	8.243613e-007	8.142461e-007	1.287436e-007
9.120108393559072e+000	8.243600e-007	8.142447e-007	1.287434e-007
9.332543007969884e+000	8.243586e-007	8.142433e-007	1.287432e-007
9.549925860214332e+000	8.243570e-007	8.142418e-007	1.287429e-007
9.772372209558078e+000	8.243555e-007	8.142403e-007	1.287427e-007
9.999999999999970e+000	8.243538e-007	8.142387e-007	1.287424e-007
1.023292992280751e+001	8.243521e-007	8.142370e-007	1.287422e-007
1.047128548050896e+001	8.243503e-007	8.142352e-007	1.287419e-007
1.071519305237603e+001	8.243484e-007	8.142333e-007	1.287416e-007
1.096478196143182e+001	8.243464e-007	8.142313e-007	1.287413e-007
1.122018454301960e+001	8.243443e-007	8.142293e-007	1.287410e-007
1.148153621496879e+001	8.243422e-007	8.142272e-007	1.287406e-007
1.174897554939526e+001	8.243399e-007	8.142249e-007	1.287403e-007
1.202264434617409e+001	8.243375e-007	8.142226e-007	1.287399e-007
1.230268770812378e+001	8.243350e-007	8.142201e-007	1.287395e-007
1.258925411794163e+001	8.243324e-007	8.142175e-007	1.287391e-007
1.288249551693130e+001	8.243297e-007	8.142148e-007	1.287387e-007
1.318256738556403e+001	8.243268e-007	8.142120e-007	1.287382e-007
1.348962882591649e+001	8.243238e-007	8.142090e-007	1.287378e-007
1.380384264602880e+001	8.243207e-007	8.142059e-007	1.287373e-007
1.412537544622749e+001	8.243174e-007	8.142027e-007	1.287367e-007
1.445439770745922e+001	8.243139e-007	8.141993e-007	1.287362e-007
1.479108388168202e+001	8.243103e-007	8.141957e-007	1.287356e-007
1.513561248436203e+001	8.243066e-007	8.141920e-007	1.287351e-007
1.548816618912476e+001	8.243026e-007	8.141881e-007	1.287344e-007
1.584893192461108e+001	8.242985e-007	8.141840e-007	1.287338e-007
1.621810097358924e+001	8.242941e-007	8.141797e-007	1.287331e-007
1.659586907437554e+001	8.242896e-007	8.141752e-007	1.287324e-007
1.698243652461738e+001	8.242849e-007	8.141706e-007	1.287317e-007
1.737800828749369e+001	8.242799e-007	8.141656e-007	1.287309e-007
1.778279410038916e+001	8.242747e-007	8.141605e-007	1.287301e-007
1.819700858609976e+001	8.242692e-007	8.141551e-007	1.287292e-007
1.862087136662860e+001	8.242635e-007	8.141495e-007	1.287283e-007
1.905460717963240e+001	8.242575e-007	8.141436e-007	1.287274e-007
1.949844599758038e+001	8.242513e-007	8.141374e-007	1.287264e-007
1.995262314968872e+001	8.242447e-007	8.141309e-007	1.287254e-007
2.041737944669522e+001	8.242379e-007	8.141241e-007	1.287243e-007
2.089296130854032e+001	8.242307e-007	8.141170e-007	1.287232e-007
2.137962089502224e+001	8.242232e-007	8.141096e-007	1.287220e-007
2.187761623949544e+001	8.242152e-007	8.141018e-007	1.287208e-007
2.238721138568331e+001	8.242070e-007	8.140937e-007	1.287195e-007
2.290867652767764e+001	8.241984e-007	8.140851e-007	1.287182e-007
2.344228815319913e+001	8.241893e-007	8.140761e-007	1.287167e-007
2.398832919019481e+001	8.241798e-007	8.140668e-007	1.287153e-007
2.454708915685020e+001	8.241699e-007	8.140570e-007	1.287137e-007
2.511886431509570e+001	8.241595e-007	8.140468e-007	1.287121e-007
2.570395782768853e+001	8.241486e-007	8.140360e-007	1.287104e-007
2.630267991895371e+001	8.241373e-007	8.140248e-007	1.287086e-007
2.691534803926904e+001	8.241253e-007	8.140130e-007	1.287067e-007
2.754228703338155e+001	8.241128e-007	8.140007e-007	1.287048e-007
2.818382931264442e+001	8.240997e-007	8.139877e-007	1.287028e-007
2.884031503126593e+001	8.240860e-007	8.139742e-007	1.287006e-007
2.951209226666373e+001	8.240717e-007	8.139600e-007	1.286984e-007
3.019951720402003e+001	8.240567e-007	8.139452e-007	1.286960e-007
3.090295432513577e+001	8.240410e-007	8.139297e-007	1.286936e-007
3.162277660168365e+001	8.240245e-007	8.139134e-007	1.286910e-007
3.235936569296268e+001	8.240073e-007	8.138964e-007	1.286883e-007
3.311311214825896e+001	8.239892e-007	8.138786e-007	1.286855e-007
3.388441561392011e+001	8.239704e-007	8.138599e-007	1.286826e-007
3.467368504525301e+001	8.239506e-007	8.138404e-007	1.286795e-007
3.548133892335738e+001	8.239299e-007	8.138200e-007	1.286762e-007
3.630780547700997e+001	8.239082e-007	8.137985e-007	1.286728e-007
3.715352290971708e+001	8.238855e-007	8.137761e-007	1.286693e-007
3.801893963205595e+001	8.238617e-007	8.137526e-007	1.286656e-007
3.890451449942788e+001	8.238368e-007	8.137280e-007	1.286617e-007
3.981071705534954e+001	8.238108e-007	8.137023e-007	1.286576e-007
4.073802778041109e+001	8.237835e-007	8.136753e-007	1.286534e-007
4.168693834703335e+001	8.237549e-007	8.136471e-007	1.286489e-007
4.265795188015907e+001	8.237250e-007	8.136175e-007	1.286442e-007
4.365158322401639e+001	8.236937e-007	8.135866e-007	1.286393e-007
4.466835921509610e+001	8.236609e-007	8.135542e-007	1.286342e-007
4.570881896148729e+001	8.236265e-007	8.135203e-007	1.286289e-007
4.677351412871960e+001	8.235906e-007	8.134848e-007	1.286232e-007
4.786300923226361e+001	8.235529e-007	8.134476e-007	1.286174e-007
4.897788193684438e+001	8.235135e-007	8.134087e-007	1.286112e-007
5.011872336272698e+001	8.234722e-007	8.133679e-007	1.286048e-007
5.128613839913624e+001	8.234291e-007	8.133252e-007	1.285980e-007
5.248074602497700e+001	8.233839e-007	8.132806e-007	1.285910e-007
5.370317963702501e+001	8.233365e-007	8.132338e-007	1.285836e-007
5.495408738576219e+001	8.232869e-007	8.131849e-007	1.285758e-007
5.623413251903463e+001	8.232350e-007	8.131336e-007	1.285677e-007
5.754399373371541e+001	8.231807e-007	8.130800e-007	1.285592e-007
5.888436553555861e+001	8.231238e-007	8.130237e-007	1.285503e-007
6.025595860743547e+001	8.230643e-007	8.129650e-007	1.285410e-007
6.165950018614791e+001	8.230019e-007	8.129034e-007	1.285313e-007
6.309573444801901e+001	8.229367e-007	8.128389e-007	1.285211e-007
6.456542290346522e+001	8.228683e-007	8.127714e-007	1.285105e-007
6.606934480075925e+001	8.227968e-007	8.127008e-007	1.284993e-007
6.760829753919782e+001	8.227219e-007	8.126268e-007	1.284876e-007
6.918309709189329e+001	8.226435e-007	8.125494e-007	1.284753e-007
7.079457843841342e+001	8.225615e-007	8.124683e-007	1.284625e-007
7.244359600749863e+001	8.224756e-007	8.123835e-007	1.284491e-007
7.413102413009136e+001	8.223857e-007	8.122947e-007	1.284351e-007
7.585775750291798e+001	8.222916e-007	8.122017e-007	1.284204e-007
7.762471166286876e+001	8.221930e-007	8.121044e-007	1.284050e-007
7.943282347242773e+001	8.220899e-007	8.120026e-007	1.283889e-007
8.128305161640949e+001	8.219820e-007	8.118959e-007	1.283720e-007
8.317637711026666e+001	8.218690e-007	8.117843e-007	1.283544e-007
8.511380382023719e+001	8.217507e-007	8.116675e-007	1.283359e-007
8.709635899560760e+001	8.216269e-007	8.115452e-007	1.283166e-007
8.912509381337408e+001	8.214974e-007	8.114173e-007	1.282963e-007
9.120108393559049e+001	8.213618e-007	8.112834e-007	1.282752e-007
9.332543007969861e+001	8.212199e-007	8.111432e-007	1.282530e-007
9.549925860214309e+001	8.210714e-007	8.109965e-007	1.282298e-007
9.772372209558054e+001	8.209159e-007	8.108429e-007	1.282055e-007
9.999999999999946e+001	8.207533e-007	8.106823e-007	1.281801e-007
1.023292992280749e+002	8.205830e-007	8.105142e-007	1.281535e-007
1.047128548050894e+002	8.204049e-007	8.103382e-007	1.281257e-007
1.071519305237600e+002	8.202185e-007	8.101541e-007	1.280966e-007
1.096478196143179e+002	8.200234e-007	8.099614e-007	1.280661e-007
1.122018454301957e+002	8.198193e-007	8.097598e-007	1.280343e-007
1.148153621496876e+002	8.196058e-007	8.095489e-007	1.280009e-007
1.174897554939523e+002	8.193823e-007	8.093282e-007	1.279660e-007
1.202264434617406e+002	8.191486e-007	8.090973e-007	1.279295e-007
1.230268770812374e+002	8.189040e-007	8.088557e-007	1.278913e-007
1.258925411794160e+002	8.186481e-007	8.086030e-007	1.278514e-007
1.288249551693126e+002	8.183804e-007	8.083385e-007	1.278095e-007
1.318256738556399e+002	8.181004e-007	8.080620e-007	1.277658e-007
1.348962882591646e+002	8.178075e-007	8.077727e-007	1.277201e-007
1.380384264602876e+002	8.175011e-007	8.074701e-007	1.276722e-007
1.412537544622746e+002	8.171807e-007	8.071536e-007	1.276222e-007
1.445439770745919e+002	8.168456e-007	8.068225e-007	1.275698e-007
1.479108388168199e+002	8.164951e-007	8.064764e-007	1.275151e-007
1.513561248436199e+002	8.161286e-007	8.061143e-007	1.274579e-007
1.548816618912472e+002	8.157453e-007	8.057358e-007	1.273980e-007
1.584893192461104e+002	8.153445e-007	8.053399e-007	1.273354e-007
1.621810097358920e+002	8.149256e-007	8.049261e-007	1.272700e-007
1.659586907437551e+002	8.144875e-007	8.044934e-007	1.272016e-007
1.698243652461734e+002	8.140295e-007	8.040411e-007	1.271301e-007
1.737800828749365e+002	8.135509e-007	8.035682e-007	1.270553e-007
1.778279410038912e+002	8.130505e-007	8.030740e-007	1.269772e-007
1.819700858609972e+002	8.125275e-007	8.025575e-007	1.268955e-007
1.862087136662856e+002	8.119810e-007	8.020177e-007	1.268101e-007
1.905460717963235e+002	8.114099e-007	8.014536e-007	1.267209e-007
1.949844599758033e+002	8.108132e-007	8.008642e-007	1.266277e-007
1.995262314968867e+002	8.101898e-007	8.002484e-007	1.265304e-007
2.041737944669516e+002	8.095384e-007	7.996051e-007	1.264287e-007
2.089296130854026e+002	8.088581e-007	7.989332e-007	1.263224e-007
2.137962089502218e+002	8.081477e-007	7.982314e-007	1.262115e-007
2.187761623949538e+002	8.074056e-007	7.974984e-007	1.260956e-007
2.238721138568325e+002	8.066309e-007	7.967332e-007	1.259746e-007
2.290867652767758e+002	8.058220e-007	7.959342e-007	1.258482e-007
2.344228815319906e+002	8.049775e-007	7.951001e-007	1.257164e-007
2.398832919019474e+002	8.040961e-007	7.942295e-007	1.255787e-007
2.454708915685014e+002	8.031763e-007	7.933210e-007	1.254351e-007
2.511886431509563e+002	8.022165e-007	7.923730e-007	1.252852e-007
2.570395782768846e+002	8.012152e-007	7.913839e-007	1.251288e-007
2.630267991895364e+002	8.001706e-007	7.903521e-007	1.249657e-007
2.691534803926897e+002	7.990812e-007	7.892762e-007	1.247955e-007
2.754228703338148e+002	7.979452e-007	7.881541e-007	1.246181e-007
2.818382931264435e+002	7.967608e-007	7.869842e-007	1.244331e-007
2.884031503126586e+002	7.955263e-007	7.857649e-007	1.242403e-007
2.951209226666366e+002	7.942397e-007	7.844941e-007	1.240394e-007
3.019951720401995e+002	7.928991e-007	7.831700e-007	1.238300e-007
3.090295432513569e+002	7.915027e-007	7.817906e-007	1.236120e-007
3.162277660168357e+002	7.900483e-007	7.803540e-007	1.233848e-007
3.235936569296260e+002	7.885338e-007	7.788582e-007	1.231483e-007
3.311311214825888e+002	7.869573e-007	7.773011e-007	1.229021e-007
3.388441561392002e+002	7.853167e-007	7.756805e-007	1.226459e-007
3.467368504525292e+002	7.836096e-007	7.739944e-007	1.223793e-007
3.548133892335729e+002	7.818340e-007	7.722406e-007	1.221020e-007
3.630780547700987e+002	7.799876e-007	7.704168e-007	1.218136e-007
3.715352290971698e+002	7.780681e-007	7.685209e-007	1.215138e-007
3.801893963205584e+002	7.760733e-007	7.665505e-007	1.212023e-007
3.890451449942777e+002	7.740007e-007	7.645034e-007	1.208786e-007
3.981071705534943e+002	7.718482e-007	7.623773e-007	1.205424e-007
4.073802778041097e+002	7.696135e-007	7.601700e-007	1.201934e-007
4.168693834703323e+002	7.672940e-007	7.578790e-007	1.198312e-007
4.265795188015895e+002	7.648876e-007	7.555021e-007	1.194554e-007
4.365158322401627e+002	7.623919e-007	7.530371e-007	1.190656e-007
4.466835921509598e+002	7.598045e-007	7.504815e-007	1.186615e-007
4.570881896148716e+002	7.571234e-007	7.478332e-007	1.182428e-007
4.677351412871947e+002	7.543460e-007	7.450898e-007	1.178091e-007
4.786300923226348e+002	7.514702e-007	7.422494e-007	1.173599e-007
4.897788193684425e+002	7.484939e-007	7.393095e-007	1.168951e-007
5.011872336272685e+002	7.454149e-007	7.362684e-007	1.164142e-007
5.128613839913610e+002	7.422312e-007	7.331237e-007	1.159170e-007
5.248074602497686e+002	7.389407e-007	7.298736e-007	1.154032e-007
5.370317963702487e+002	7.355417e-007	7.265163e-007	1.148723e-007
5.495408738576203e+002	7.320323e-007	7.230499e-007	1.143242e-007
5.623413251903447e+002	7.284108e-007	7.194729e-007	1.137587e-007
5.754399373371524e+002	7.246757e-007	7.157836e-007	1.131753e-007
5.888436553555844e+002	7.208254e-007	7.119805e-007	1.125740e-007
6.025595860743530e+002	7.168587e-007	7.080626e-007	1.119545e-007
6.165950018614773e+002	7.127745e-007	7.040285e-007	1.113167e-007
6.309573444801882e+002	7.085718e-007	6.998773e-007	1.106603e-007
6.456542290346504e+002	7.042497e-007	6.956083e-007	1.099853e-007
6.606934480075908e+002	6.998076e-007	6.912207e-007	1.092916e-007
6.760829753919763e+002	6.952451e-007	6.867141e-007	1.085790e-007
6.918309709189309e+002	6.905619e-007	6.820885e-007	1.078477e-007
7.079457843841321e+002	6.857581e-007	6.773436e-007	1.070974e-007
7.244359600749841e+002	6.808338e-007	6.724797e-007	1.063284e-007
7.413102413009113e+002	6.757895e-007	6.674972e-007	1.055406e-007
7.585775750291774e+002	6.706257e-007	6.623969e-007	1.047341e-007
7.762471166286852e+002	6.653435e-007	6.571794e-007	1.039092e-007
7.943282347242747e+002	6.599440e-007	6.518462e-007	1.030659e-007
8.128305161640923e+002	6.544285e-007	6.463984e-007	1.022046e-007
8.317637711026639e+002	6.487988e-007	6.408378e-007	1.013253e-007
8.511380382023692e+002	6.430568e-007	6.351662e-007	1.004286e-007
8.709635899560732e+002	6.372046e-007	6.293859e-007	9.951464e-008
8.912509381337379e+002	6.312447e-007	6.234990e-007	9.858385e-008
9.120108393559019e+002	6.251797e-007	6.175085e-007	9.763666e-008
9.332543007969830e+002	6.190126e-007	6.114170e-007	9.667352e-008
9.549925860214277e+002	6.127465e-007	6.052279e-007	9.569493e-008
9.772372209558022e+002	6.063849e-007	5.989443e-007	9.470141e-008
9.999999999999913e+002	5.999314e-007	5.925699e-007	9.369353e-008
1.023292992280745e+003	5.933897e-007	5.861086e-007	9.267190e-008
