Freq.	V(v-)	V(vout)
1.00000000000000e-002	(2.11464071532348e+001dB,3.99581590300246e-006°)	(1.19885029759762e+002dB,1.79999985485482e+002°)
1.02329299228075e-002	(2.11464071532341e+001dB,4.08889041202468e-006°)	(1.19885029759761e+002dB,1.79999985147396e+002°)
1.04712854805090e-002	(2.11464071532344e+001dB,4.18413290486864e-006°)	(1.19885029759760e+002dB,1.79999984801434e+002°)
1.07151930523761e-002	(2.11464071532336e+001dB,4.28159388036848e-006°)	(1.19885029759759e+002dB,1.79999984447414e+002°)
1.09647819614318e-002	(2.11464071532309e+001dB,4.38132501362358e-006°)	(1.19885029759759e+002dB,1.79999984085148e+002°)
1.12201845430196e-002	(2.11464071532320e+001dB,4.48337918336381e-006°)	(1.19885029759758e+002dB,1.79999983714443e+002°)
1.14815362149688e-002	(2.11464071532312e+001dB,4.58781050014437e-006°)	(1.19885029759757e+002dB,1.79999983335104e+002°)
1.17489755493953e-002	(2.11464071532302e+001dB,4.69467433476890e-006°)	(1.19885029759756e+002dB,1.79999982946928e+002°)
1.20226443461741e-002	(2.11464071532283e+001dB,4.80402734787829e-006°)	(1.19885029759755e+002dB,1.79999982549711e+002°)
1.23026877081238e-002	(2.11464071532273e+001dB,4.91592751987814e-006°)	(1.19885029759754e+002dB,1.79999982143242e+002°)
1.25892541179417e-002	(2.11464071532261e+001dB,5.03043418170747e-006°)	(1.19885029759753e+002dB,1.79999981727305e+002°)
1.28824955169313e-002	(2.11464071532269e+001dB,5.14760804633194e-006°)	(1.19885029759751e+002dB,1.79999981301679e+002°)
1.31825673855641e-002	(2.11464071532258e+001dB,5.26751124090815e-006°)	(1.19885029759750e+002dB,1.79999980866139e+002°)
1.34896288259165e-002	(2.11464071532227e+001dB,5.39020733966923e-006°)	(1.19885029759749e+002dB,1.79999980420454e+002°)
1.38038426460288e-002	(2.11464071532214e+001dB,5.51576139771104e-006°)	(1.19885029759748e+002dB,1.79999979964388e+002°)
1.41253754462275e-002	(2.11464071532220e+001dB,5.64423998547825e-006°)	(1.19885029759746e+002dB,1.79999979497699e+002°)
1.44543977074593e-002	(2.11464071532187e+001dB,5.77571122399135e-006°)	(1.19885029759745e+002dB,1.79999979020139e+002°)
1.47910838816821e-002	(2.11464071532173e+001dB,5.91024482107788e-006°)	(1.19885029759744e+002dB,1.79999978531455e+002°)
1.51356124843621e-002	(2.11464071532168e+001dB,6.04791210817498e-006°)	(1.19885029759742e+002dB,1.79999978031388e+002°)
1.54881661891248e-002	(2.11464071532142e+001dB,6.18878607835853e-006°)	(1.19885029759740e+002dB,1.79999977519674e+002°)
1.58489319246111e-002	(2.11464071532145e+001dB,6.33294142486199e-006°)	(1.19885029759739e+002dB,1.79999976996039e+002°)
1.62181009735893e-002	(2.11464071532128e+001dB,6.48045458072821e-006°)	(1.19885029759737e+002dB,1.79999976460208e+002°)
1.65958690743756e-002	(2.11464071532100e+001dB,6.63140375940859e-006°)	(1.19885029759735e+002dB,1.79999975911896e+002°)
1.69824365246174e-002	(2.11464071532081e+001dB,6.78586899617199e-006°)	(1.19885029759733e+002dB,1.79999975350812e+002°)
1.73780082874937e-002	(2.11464071532052e+001dB,6.94393219050414e-006°)	(1.19885029759731e+002dB,1.79999974776659e+002°)
1.77827941003892e-002	(2.11464071532050e+001dB,7.10567714959519e-006°)	(1.19885029759729e+002dB,1.79999974189132e+002°)
1.81970085860998e-002	(2.11464071532009e+001dB,7.27118963282641e-006°)	(1.19885029759727e+002dB,1.79999973587919e+002°)
1.86208713666287e-002	(2.11464071531986e+001dB,7.44055739705037e-006°)	(1.19885029759724e+002dB,1.79999972972703e+002°)
1.90546071796325e-002	(2.11464071531963e+001dB,7.61387024328526e-006°)	(1.19885029759722e+002dB,1.79999972343156e+002°)
1.94984459975804e-002	(2.11464071531943e+001dB,7.79122006434244e-006°)	(1.19885029759719e+002dB,1.79999971698946e+002°)
1.99526231496888e-002	(2.11464071531907e+001dB,7.97270089345352e-006°)	(1.19885029759716e+002dB,1.79999971039730e+002°)
2.04173794466953e-002	(2.11464071531889e+001dB,8.15840895409982e-006°)	(1.19885029759713e+002dB,1.79999970365158e+002°)
2.08929613085404e-002	(2.11464071531851e+001dB,8.34844271122235e-006°)	(1.19885029759710e+002dB,1.79999969674874e+002°)
2.13796208950223e-002	(2.11464071531831e+001dB,8.54290292317425e-006°)	(1.19885029759707e+002dB,1.79999968968511e+002°)
2.18776162394955e-002	(2.11464071531778e+001dB,8.74189269542080e-006°)	(1.19885029759704e+002dB,1.79999968245695e+002°)
2.23872113856834e-002	(2.11464071531755e+001dB,8.94551753488500e-006°)	(1.19885029759700e+002dB,1.79999967506042e+002°)
2.29086765276777e-002	(2.11464071531720e+001dB,9.15388540616756e-006°)	(1.19885029759697e+002dB,1.79999966749161e+002°)
2.34422881531992e-002	(2.11464071531674e+001dB,9.36710678878369e-006°)	(1.19885029759693e+002dB,1.79999965974649e+002°)
2.39883291901949e-002	(2.11464071531646e+001dB,9.58529473536531e-006°)	(1.19885029759689e+002dB,1.79999965182097e+002°)
2.45470891568503e-002	(2.11464071531595e+001dB,9.80856493219813e-006°)	(1.19885029759685e+002dB,1.79999964371084e+002°)
2.51188643150958e-002	(2.11464071531554e+001dB,1.00370357599981e-005°)	(1.19885029759681e+002dB,1.79999963541180e+002°)
2.57039578276886e-002	(2.11464071531530e+001dB,1.02708283570694e-005°)	(1.19885029759676e+002dB,1.79999962691945e+002°)
2.63026799189538e-002	(2.11464071531482e+001dB,1.05100666833225e-005°)	(1.19885029759671e+002dB,1.79999961822928e+002°)
2.69153480392691e-002	(2.11464071531425e+001dB,1.07548775861037e-005°)	(1.19885029759666e+002dB,1.79999960933670e+002°)
2.75422870333816e-002	(2.11464071531375e+001dB,1.10053908674600e-005°)	(1.19885029759661e+002dB,1.79999960023698e+002°)
2.81838293126445e-002	(2.11464071531330e+001dB,1.12617393527638e-005°)	(1.19885029759656e+002dB,1.79999959092531e+002°)
2.88403150312660e-002	(2.11464071531276e+001dB,1.15240589614284e-005°)	(1.19885029759650e+002dB,1.79999958139673e+002°)
2.95120922666638e-002	(2.11464071531219e+001dB,1.17924887787516e-005°)	(1.19885029759644e+002dB,1.79999957164621e+002°)
3.01995172040201e-002	(2.11464071531147e+001dB,1.20671711298221e-005°)	(1.19885029759638e+002dB,1.79999956166857e+002°)
3.09029543251359e-002	(2.11464071531094e+001dB,1.23482516548267e-005°)	(1.19885029759631e+002dB,1.79999955145852e+002°)
3.16227766016838e-002	(2.11464071531029e+001dB,1.26358793864068e-005°)	(1.19885029759624e+002dB,1.79999954101064e+002°)
3.23593656929628e-002	(2.11464071530958e+001dB,1.29302068286178e-005°)	(1.19885029759617e+002dB,1.79999953031941e+002°)
3.31131121482591e-002	(2.11464071530886e+001dB,1.32313900377297e-005°)	(1.19885029759610e+002dB,1.79999951937914e+002°)
3.38844156139202e-002	(2.11464071530808e+001dB,1.35395887050984e-005°)	(1.19885029759602e+002dB,1.79999950818404e+002°)
3.46736850452531e-002	(2.11464071530729e+001dB,1.38549662417605e-005°)	(1.19885029759594e+002dB,1.79999949672818e+002°)
3.54813389233575e-002	(2.11464071530635e+001dB,1.41776898650763e-005°)	(1.19885029759585e+002dB,1.79999948500547e+002°)
3.63078054770101e-002	(2.11464071530558e+001dB,1.45079306873213e-005°)	(1.19885029759576e+002dB,1.79999947300971e+002°)
3.71535229097172e-002	(2.11464071530446e+001dB,1.48458638066849e-005°)	(1.19885029759566e+002dB,1.79999946073453e+002°)
3.80189396320561e-002	(2.11464071530368e+001dB,1.51916683996273e-005°)	(1.19885029759556e+002dB,1.79999944817342e+002°)
3.89045144994280e-002	(2.11464071530259e+001dB,1.55455278164855e-005°)	(1.19885029759546e+002dB,1.79999943531973e+002°)
3.98107170553497e-002	(2.11464071530163e+001dB,1.59076296781001e-005°)	(1.19885029759535e+002dB,1.79999942216664e+002°)
4.07380277804112e-002	(2.11464071530042e+001dB,1.62781659757993e-005°)	(1.19885029759524e+002dB,1.79999940870717e+002°)
4.16869383470335e-002	(2.11464071529938e+001dB,1.66573331727418e-005°)	(1.19885029759512e+002dB,1.79999939493419e+002°)
4.26579518801592e-002	(2.11464071529816e+001dB,1.70453323085132e-005°)	(1.19885029759499e+002dB,1.79999938084040e+002°)
4.36515832240165e-002	(2.11464071529689e+001dB,1.74423691053221e-005°)	(1.19885029759486e+002dB,1.79999936641832e+002°)
4.46683592150962e-002	(2.11464071529546e+001dB,1.78486540774177e-005°)	(1.19885029759473e+002dB,1.79999935166030e+002°)
4.57088189614874e-002	(2.11464071529417e+001dB,1.82644026423378e-005°)	(1.19885029759458e+002dB,1.79999933655853e+002°)
4.67735141287197e-002	(2.11464071529281e+001dB,1.86898352357130e-005°)	(1.19885029759443e+002dB,1.79999932110499e+002°)
4.78630092322637e-002	(2.11464071529109e+001dB,1.91251774273964e-005°)	(1.19885029759428e+002dB,1.79999930529150e+002°)
4.89778819368445e-002	(2.11464071528949e+001dB,1.95706600417716e-005°)	(1.19885029759411e+002dB,1.79999928910966e+002°)
5.01187233627271e-002	(2.11464071528792e+001dB,2.00265192794147e-005°)	(1.19885029759394e+002dB,1.79999927255090e+002°)
5.12861383991364e-002	(2.11464071528598e+001dB,2.04929968432109e-005°)	(1.19885029759376e+002dB,1.79999925560643e+002°)
5.24807460249771e-002	(2.11464071528425e+001dB,2.09703400655689e-005°)	(1.19885029759357e+002dB,1.79999923826728e+002°)
5.37031796370252e-002	(2.11464071528243e+001dB,2.14588020402234e-005°)	(1.19885029759337e+002dB,1.79999922052424e+002°)
5.49540873857623e-002	(2.11464071528033e+001dB,2.19586417564009e-005°)	(1.19885029759317e+002dB,1.79999920236792e+002°)
5.62341325190348e-002	(2.11464071527821e+001dB,2.24701242356039e-005°)	(1.19885029759295e+002dB,1.79999918378868e+002°)
5.75439937337156e-002	(2.11464071527611e+001dB,2.29935206726645e-005°)	(1.19885029759272e+002dB,1.79999916477668e+002°)
5.88843655355588e-002	(2.11464071527380e+001dB,2.35291085793193e-005°)	(1.19885029759248e+002dB,1.79999914532183e+002°)
6.02559586074356e-002	(2.11464071527129e+001dB,2.40771719315257e-005°)	(1.19885029759223e+002dB,1.79999912541381e+002°)
6.16595001861481e-002	(2.11464071526876e+001dB,2.46380013196955e-005°)	(1.19885029759197e+002dB,1.79999910504208e+002°)
6.30957344480192e-002	(2.11464071526610e+001dB,2.52118941030785e-005°)	(1.19885029759170e+002dB,1.79999908419584e+002°)
6.45654229034654e-002	(2.11464071526325e+001dB,2.57991545673367e-005°)	(1.19885029759141e+002dB,1.79999906286402e+002°)
6.60693448007594e-002	(2.11464071526034e+001dB,2.64000940855892e-005°)	(1.19885029759111e+002dB,1.79999904103532e+002°)
6.76082975391980e-002	(2.11464071525742e+001dB,2.70150312841655e-005°)	(1.19885029759080e+002dB,1.79999901869816e+002°)
6.91830970918935e-002	(2.11464071525431e+001dB,2.76442922109905e-005°)	(1.19885029759047e+002dB,1.79999899584070e+002°)
7.07945784384136e-002	(2.11464071525095e+001dB,2.82882105085272e-005°)	(1.19885029759013e+002dB,1.79999897245083e+002°)
7.24435960074988e-002	(2.11464071524739e+001dB,2.89471275910118e-005°)	(1.19885029758977e+002dB,1.79999894851613e+002°)
7.41310241300916e-002	(2.11464071524372e+001dB,2.96213928248156e-005°)	(1.19885029758939e+002dB,1.79999892402393e+002°)
7.58577575029182e-002	(2.11464071524000e+001dB,3.03113637145501e-005°)	(1.19885029758900e+002dB,1.79999889896123e+002°)
7.76247116628690e-002	(2.11464071523598e+001dB,3.10174060919962e-005°)	(1.19885029758858e+002dB,1.79999887331474e+002°)
7.94328234724279e-002	(2.11464071523180e+001dB,3.17398943102251e-005°)	(1.19885029758815e+002dB,1.79999884707087e+002°)
8.12830516164097e-002	(2.11464071522730e+001dB,3.24792114424095e-005°)	(1.19885029758770e+002dB,1.79999882021570e+002°)
8.31763771102669e-002	(2.11464071522260e+001dB,3.32357494840586e-005°)	(1.19885029758722e+002dB,1.79999879273499e+002°)
8.51138038202374e-002	(2.11464071521798e+001dB,3.40099095618514e-005°)	(1.19885029758673e+002dB,1.79999876461418e+002°)
8.70963589956078e-002	(2.11464071521293e+001dB,3.48021021460256e-005°)	(1.19885029758621e+002dB,1.79999873583835e+002°)
8.91250938133743e-002	(2.11464071520764e+001dB,3.56127472674154e-005°)	(1.19885029758566e+002dB,1.79999870639224e+002°)
9.12010839355907e-002	(2.11464071520211e+001dB,3.64422747413182e-005°)	(1.19885029758509e+002dB,1.79999867626024e+002°)
9.33254300796988e-002	(2.11464071519621e+001dB,3.72911243941939e-005°)	(1.19885029758449e+002dB,1.79999864542638e+002°)
9.54992586021433e-002	(2.11464071519024e+001dB,3.81597462972380e-005°)	(1.19885029758386e+002dB,1.79999861387431e+002°)
9.77237220955808e-002	(2.11464071518389e+001dB,3.90486010059664e-005°)	(1.19885029758321e+002dB,1.79999858158730e+002°)
9.99999999999997e-002	(2.11464071517724e+001dB,3.99581598029720e-005°)	(1.19885029758252e+002dB,1.79999854854822e+002°)
1.02329299228075e-001	(2.11464071517036e+001dB,4.08889049485576e-005°)	(1.19885029758180e+002dB,1.79999851473957e+002°)
1.04712854805090e-001	(2.11464071516300e+001dB,4.18413299361120e-005°)	(1.19885029758106e+002dB,1.79999848014341e+002°)
1.07151930523760e-001	(2.11464071515544e+001dB,4.28159397545684e-005°)	(1.19885029758027e+002dB,1.79999844474140e+002°)
1.09647819614318e-001	(2.11464071514734e+001dB,4.38132511551408e-005°)	(1.19885029757944e+002dB,1.79999840851477e+002°)
1.12201845430196e-001	(2.11464071513905e+001dB,4.48337929257316e-005°)	(1.19885029757858e+002dB,1.79999837144432e+002°)
1.14815362149688e-001	(2.11464071513019e+001dB,4.58781061714989e-005°)	(1.19885029757767e+002dB,1.79999833351039e+002°)
1.17489755493953e-001	(2.11464071512081e+001dB,4.69467446015942e-005°)	(1.19885029757672e+002dB,1.79999829469286e+002°)
1.20226443461741e-001	(2.11464071511130e+001dB,4.80402748220888e-005°)	(1.19885029757573e+002dB,1.79999825497115e+002°)
1.23026877081238e-001	(2.11464071510133e+001dB,4.91592766380545e-005°)	(1.19885029757470e+002dB,1.79999821432421e+002°)
1.25892541179416e-001	(2.11464071509088e+001dB,5.03043433594871e-005°)	(1.19885029757361e+002dB,1.79999817273048e+002°)
1.28824955169313e-001	(2.11464071507974e+001dB,5.14760821161207e-005°)	(1.19885029757247e+002dB,1.79999813016790e+002°)
1.31825673855640e-001	(2.11464071506807e+001dB,5.26751141802920e-005°)	(1.19885029757128e+002dB,1.79999808661392e+002°)
1.34896288259165e-001	(2.11464071505607e+001dB,5.39020752943831e-005°)	(1.19885029757003e+002dB,1.79999804204543e+002°)
1.38038426460288e-001	(2.11464071504340e+001dB,5.51576160105449e-005°)	(1.19885029756872e+002dB,1.79999799643881e+002°)
1.41253754462275e-001	(2.11464071503021e+001dB,5.64424020335041e-005°)	(1.19885029756735e+002dB,1.79999794976988e+002°)
1.44543977074592e-001	(2.11464071500821e+001dB,5.77571145755018e-005°)	(1.19885029756514e+002dB,1.79999790201389e+002°)
1.47910838816820e-001	(2.11464071499387e+001dB,5.91024507133909e-005°)	(1.19885029756364e+002dB,1.79999785314551e+002°)
1.51356124843620e-001	(2.11464071497853e+001dB,6.04791237633345e-005°)	(1.19885029756207e+002dB,1.79999780313885e+002°)
1.54881661891248e-001	(2.11464071496257e+001dB,6.18878636570251e-005°)	(1.19885029756042e+002dB,1.79999775196738e+002°)
1.58489319246111e-001	(2.11464071494597e+001dB,6.33294173273212e-005°)	(1.19885029755870e+002dB,1.79999769960398e+002°)
1.62181009735892e-001	(2.11464071492836e+001dB,6.48045491062118e-005°)	(1.19885029755689e+002dB,1.79999764602087e+002°)
1.65958690743755e-001	(2.11464071491014e+001dB,6.63140411288111e-005°)	(1.19885029755500e+002dB,1.79999759118965e+002°)
1.69824365246174e-001	(2.11464071489086e+001dB,6.78586937492666e-005°)	(1.19885029755302e+002dB,1.79999753508126e+002°)
1.73780082874937e-001	(2.11464071487086e+001dB,6.94393259633253e-005°)	(1.19885029755095e+002dB,1.79999747766592e+002°)
1.77827941003892e-001	(2.11464071484991e+001dB,7.10567758444727e-005°)	(1.19885029754878e+002dB,1.79999741891322e+002°)
1.81970085860998e-001	(2.11464071482778e+001dB,7.27119009873797e-005°)	(1.19885029754651e+002dB,1.79999735879199e+002°)
1.86208713666286e-001	(2.11464071480483e+001dB,7.44055789627166e-005°)	(1.19885029754413e+002dB,1.79999729727035e+002°)
1.90546071796324e-001	(2.11464071478056e+001dB,7.61387077827277e-005°)	(1.19885029754164e+002dB,1.79999723431569e+002°)
1.94984459975804e-001	(2.11464071475537e+001dB,7.79122063756835e-005°)	(1.19885029753903e+002dB,1.79999716989463e+002°)
1.99526231496887e-001	(2.11464071472878e+001dB,7.97270150760176e-005°)	(1.19885029753630e+002dB,1.79999710397301e+002°)
2.04173794466952e-001	(2.11464071470106e+001dB,8.15840961222689e-005°)	(1.19885029753344e+002dB,1.79999703651588e+002°)
2.08929613085403e-001	(2.11464071467201e+001dB,8.34844341640866e-005°)	(1.19885029753044e+002dB,1.79999696748747e+002°)
2.13796208950222e-001	(2.11464071464160e+001dB,8.54290367881810e-005°)	(1.19885029752731e+002dB,1.79999689685118e+002°)
2.18776162394954e-001	(2.11464071460967e+001dB,8.74189350507826e-005°)	(1.19885029752403e+002dB,1.79999682456956e+002°)
2.23872113856833e-001	(2.11464071457631e+001dB,8.94551840244658e-005°)	(1.19885029752059e+002dB,1.79999675060429e+002°)
2.29086765276776e-001	(2.11464071454140e+001dB,9.15388633576806e-005°)	(1.19885029751698e+002dB,1.79999667491615e+002°)
2.34422881531991e-001	(2.11464071450494e+001dB,9.36710778479175e-005°)	(1.19885029751321e+002dB,1.79999659746500e+002°)
2.39883291901948e-001	(2.11464071446674e+001dB,9.58529580263856e-005°)	(1.19885029750927e+002dB,1.79999651820978e+002°)
2.45470891568502e-001	(2.11464071442647e+001dB,9.80856607577156e-005°)	(1.19885029750513e+002dB,1.79999643710847e+002°)
2.51188643150957e-001	(2.11464071437689e+001dB,1.00370369855218e-004°)	(1.19885029750002e+002dB,1.79999635411808e+002°)
2.57039578276885e-001	(2.11464071433274e+001dB,1.02708296702610e-004°)	(1.19885029749549e+002dB,1.79999626919458e+002°)
2.63026799189537e-001	(2.11464071428691e+001dB,1.05100680904115e-004°)	(1.19885029749074e+002dB,1.79999618229297e+002°)
2.69153480392690e-001	(2.11464071423861e+001dB,1.07548790938272e-004°)	(1.19885029748577e+002dB,1.79999609336715e+002°)
2.75422870333815e-001	(2.11464071418805e+001dB,1.10053924829667e-004°)	(1.19885029748057e+002dB,1.79999600236999e+002°)
2.81838293126444e-001	(2.11464071413520e+001dB,1.12617410837911e-004°)	(1.19885029747512e+002dB,1.79999590925323e+002°)
2.88403150312659e-001	(2.11464071407986e+001dB,1.15240608162652e-004°)	(1.19885029746941e+002dB,1.79999581396751e+002°)
2.95120922666637e-001	(2.11464071402192e+001dB,1.17924907662487e-004°)	(1.19885029746344e+002dB,1.79999571646230e+002°)
3.01995172040200e-001	(2.11464071396145e+001dB,1.20671732593816e-004°)	(1.19885029745718e+002dB,1.79999561668590e+002°)
3.09029543251358e-001	(2.11464071389780e+001dB,1.23482539367228e-004°)	(1.19885029745063e+002dB,1.79999551458541e+002°)
3.16227766016837e-001	(2.11464071383128e+001dB,1.26358818314918e-004°)	(1.19885029744377e+002dB,1.79999541010669e+002°)
3.23593656929627e-001	(2.11464071375384e+001dB,1.29302094487266e-004°)	(1.19885029743580e+002dB,1.79999530319435e+002°)
3.31131121482590e-001	(2.11464071368087e+001dB,1.32313928452159e-004°)	(1.19885029742828e+002dB,1.79999519379171e+002°)
3.38844156139201e-001	(2.11464071360460e+001dB,1.35395917133351e-004°)	(1.19885029742040e+002dB,1.79999508184075e+002°)
3.46736850452530e-001	(2.11464071352451e+001dB,1.38549694651822e-004°)	(1.19885029741215e+002dB,1.79999496728212e+002°)
3.54813389233574e-001	(2.11464071344064e+001dB,1.41776933189376e-004°)	(1.19885029740351e+002dB,1.79999485005507e+002°)
3.63078054770100e-001	(2.11464071335284e+001dB,1.45079343881519e-004°)	(1.19885029739447e+002dB,1.79999473009746e+002°)
3.71535229097171e-001	(2.11464071326111e+001dB,1.48458677722031e-004°)	(1.19885029738500e+002dB,1.79999460734568e+002°)
3.80189396320559e-001	(2.11464071316505e+001dB,1.51916726487285e-004°)	(1.19885029737508e+002dB,1.79999448173465e+002°)
3.89045144994279e-001	(2.11464071305647e+001dB,1.55455323696151e-004°)	(1.19885029736392e+002dB,1.79999435319775e+002°)
3.98107170553495e-001	(2.11464071295103e+001dB,1.59076345569214e-004°)	(1.19885029735304e+002dB,1.79999422166685e+002°)
4.07380277804111e-001	(2.11464071284070e+001dB,1.62781712034346e-004°)	(1.19885029734166e+002dB,1.79999408707221e+002°)
4.16869383470333e-001	(2.11464071272509e+001dB,1.66573387742605e-004°)	(1.19885029732973e+002dB,1.79999394934245e+002°)
4.26579518801591e-001	(2.11464071260393e+001dB,1.70453383105455e-004°)	(1.19885029731725e+002dB,1.79999380840456e+002°)
4.36515832240164e-001	(2.11464071246939e+001dB,1.74423755368166e-004°)	(1.19885029730340e+002dB,1.79999366418381e+002°)
