Freq.	V(v-)	V(vout)
1.00000000000000e-002	(2.12587417829098e+001dB,1.13336799011282e-005°)	(1.19997364389437e+002dB,1.79999992823346e+002°)
1.02329299228075e-002	(2.12587417829095e+001dB,1.15976752195967e-005°)	(1.19997364389436e+002dB,1.79999992656180e+002°)
1.04712854805090e-002	(2.12587417829101e+001dB,1.18678197789806e-005°)	(1.19997364389436e+002dB,1.79999992485121e+002°)
1.07151930523761e-002	(2.12587417829097e+001dB,1.21442568135047e-005°)	(1.19997364389435e+002dB,1.79999992310077e+002°)
1.09647819614318e-002	(2.12587417829074e+001dB,1.24271328937438e-005°)	(1.19997364389435e+002dB,1.79999992130956e+002°)
1.12201845430196e-002	(2.12587417829089e+001dB,1.27165980043027e-005°)	(1.19997364389435e+002dB,1.79999991947662e+002°)
1.14815362149688e-002	(2.12587417829085e+001dB,1.30128056234979e-005°)	(1.19997364389434e+002dB,1.79999991760099e+002°)
1.17489755493953e-002	(2.12587417829080e+001dB,1.33159128044669e-005°)	(1.19997364389434e+002dB,1.79999991568167e+002°)
1.20226443461741e-002	(2.12587417829066e+001dB,1.36260802586702e-005°)	(1.19997364389433e+002dB,1.79999991371764e+002°)
1.23026877081238e-002	(2.12587417829061e+001dB,1.39434724409880e-005°)	(1.19997364389433e+002dB,1.79999991170787e+002°)
1.25892541179417e-002	(2.12587417829056e+001dB,1.42682576369453e-005°)	(1.19997364389432e+002dB,1.79999990965128e+002°)
1.28824955169313e-002	(2.12587417829070e+001dB,1.46006080519651e-005°)	(1.19997364389432e+002dB,1.79999990754679e+002°)
1.31825673855641e-002	(2.12587417829065e+001dB,1.49406999026613e-005°)	(1.19997364389431e+002dB,1.79999990539328e+002°)
1.34896288259165e-002	(2.12587417829039e+001dB,1.52887135102067e-005°)	(1.19997364389430e+002dB,1.79999990318960e+002°)
1.38038426460288e-002	(2.12587417829033e+001dB,1.56448333960225e-005°)	(1.19997364389430e+002dB,1.79999990093460e+002°)
1.41253754462275e-002	(2.12587417829046e+001dB,1.60092483796068e-005°)	(1.19997364389429e+002dB,1.79999989862707e+002°)
1.44543977074593e-002	(2.12587417829020e+001dB,1.63821516785800e-005°)	(1.19997364389428e+002dB,1.79999989626579e+002°)
1.47910838816821e-002	(2.12587417829013e+001dB,1.67637410112433e-005°)	(1.19997364389428e+002dB,1.79999989384951e+002°)
1.51356124843621e-002	(2.12587417829015e+001dB,1.71542187012547e-005°)	(1.19997364389427e+002dB,1.79999989137695e+002°)
1.54881661891248e-002	(2.12587417828998e+001dB,1.75537917851116e-005°)	(1.19997364389426e+002dB,1.79999988884679e+002°)
1.58489319246111e-002	(2.12587417829009e+001dB,1.79626721217416e-005°)	(1.19997364389425e+002dB,1.79999988625770e+002°)
1.62181009735893e-002	(2.12587417829001e+001dB,1.83810765048807e-005°)	(1.19997364389424e+002dB,1.79999988360830e+002°)
1.65958690743756e-002	(2.12587417828982e+001dB,1.88092267780942e-005°)	(1.19997364389423e+002dB,1.79999988089719e+002°)
1.69824365246174e-002	(2.12587417828973e+001dB,1.92473499523401e-005°)	(1.19997364389422e+002dB,1.79999987812293e+002°)
1.73780082874937e-002	(2.12587417828953e+001dB,1.96956783262966e-005°)	(1.19997364389421e+002dB,1.79999987528405e+002°)
1.77827941003892e-002	(2.12587417828963e+001dB,2.01544496095936e-005°)	(1.19997364389420e+002dB,1.79999987237904e+002°)
1.81970085860998e-002	(2.12587417828932e+001dB,2.06239070489004e-005°)	(1.19997364389419e+002dB,1.79999986940637e+002°)
1.86208713666287e-002	(2.12587417828921e+001dB,2.11042995567078e-005°)	(1.19997364389418e+002dB,1.79999986636445e+002°)
1.90546071796325e-002	(2.12587417828910e+001dB,2.15958818434693e-005°)	(1.19997364389417e+002dB,1.79999986325168e+002°)
1.94984459975804e-002	(2.12587417828907e+001dB,2.20989145526728e-005°)	(1.19997364389415e+002dB,1.79999986006640e+002°)
1.99526231496888e-002	(2.12587417828884e+001dB,2.26136643989130e-005°)	(1.19997364389414e+002dB,1.79999985680693e+002°)
2.04173794466953e-002	(2.12587417828881e+001dB,2.31404043093215e-005°)	(1.19997364389412e+002dB,1.79999985347153e+002°)
2.08929613085404e-002	(2.12587417828857e+001dB,2.36794135684393e-005°)	(1.19997364389411e+002dB,1.79999985005845e+002°)
2.13796208950223e-002	(2.12587417828852e+001dB,2.42309779660490e-005°)	(1.19997364389409e+002dB,1.79999984656586e+002°)
2.18776162394955e-002	(2.12587417828817e+001dB,2.47953899489847e-005°)	(1.19997364389408e+002dB,1.79999984299192e+002°)
2.23872113856834e-002	(2.12587417828811e+001dB,2.53729487758533e-005°)	(1.19997364389406e+002dB,1.79999983933473e+002°)
2.29086765276777e-002	(2.12587417828794e+001dB,2.59639606760080e-005°)	(1.19997364389404e+002dB,1.79999983559236e+002°)
2.34422881531992e-002	(2.12587417828766e+001dB,2.65687390118915e-005°)	(1.19997364389402e+002dB,1.79999983176281e+002°)
2.39883291901949e-002	(2.12587417828757e+001dB,2.71876044448139e-005°)	(1.19997364389400e+002dB,1.79999982784406e+002°)
2.45470891568503e-002	(2.12587417828728e+001dB,2.78208851055706e-005°)	(1.19997364389398e+002dB,1.79999982383404e+002°)
2.51188643150958e-002	(2.12587417828708e+001dB,2.84689167678422e-005°)	(1.19997364389396e+002dB,1.79999981973061e+002°)
2.57039578276886e-002	(2.12587417828706e+001dB,2.91320430266433e-005°)	(1.19997364389394e+002dB,1.79999981553159e+002°)
2.63026799189538e-002	(2.12587417828684e+001dB,2.98106154802777e-005°)	(1.19997364389391e+002dB,1.79999981123477e+002°)
2.69153480392691e-002	(2.12587417828651e+001dB,3.05049939168497e-005°)	(1.19997364389389e+002dB,1.79999980683786e+002°)
2.75422870333816e-002	(2.12587417828626e+001dB,3.12155465050661e-005°)	(1.19997364389386e+002dB,1.79999980233854e+002°)
2.81838293126445e-002	(2.12587417828610e+001dB,3.19426499892317e-005°)	(1.19997364389384e+002dB,1.79999979773441e+002°)
2.88403150312660e-002	(2.12587417828584e+001dB,3.26866898892788e-005°)	(1.19997364389381e+002dB,1.79999979302304e+002°)
2.95120922666638e-002	(2.12587417828556e+001dB,3.34480607049822e-005°)	(1.19997364389378e+002dB,1.79999978820193e+002°)
3.01995172040201e-002	(2.12587417828517e+001dB,3.42271661252755e-005°)	(1.19997364389375e+002dB,1.79999978326852e+002°)
3.09029543251359e-002	(2.12587417828495e+001dB,3.50244192421195e-005°)	(1.19997364389371e+002dB,1.79999977822019e+002°)
3.16227766016838e-002	(2.12587417828463e+001dB,3.58402427696983e-005°)	(1.19997364389368e+002dB,1.79999977305428e+002°)
3.23593656929628e-002	(2.12587417828429e+001dB,3.66750692684722e-005°)	(1.19997364389364e+002dB,1.79999976776803e+002°)
3.31131121482591e-002	(2.12587417828394e+001dB,3.75293413744497e-005°)	(1.19997364389361e+002dB,1.79999976235866e+002°)
3.38844156139202e-002	(2.12587417828357e+001dB,3.84035120340488e-005°)	(1.19997364389357e+002dB,1.79999975682328e+002°)
3.46736850452531e-002	(2.12587417828318e+001dB,3.92980447441310e-005°)	(1.19997364389353e+002dB,1.79999975115896e+002°)
3.54813389233575e-002	(2.12587417828268e+001dB,4.02134137978037e-005°)	(1.19997364389348e+002dB,1.79999974536271e+002°)
3.63078054770101e-002	(2.12587417828235e+001dB,4.11501045357760e-005°)	(1.19997364389344e+002dB,1.79999973943145e+002°)
3.71535229097172e-002	(2.12587417828171e+001dB,4.21086136040180e-005°)	(1.19997364389339e+002dB,1.79999973336203e+002°)
3.80189396320561e-002	(2.12587417828144e+001dB,4.30894492165596e-005°)	(1.19997364389334e+002dB,1.79999972715123e+002°)
3.89045144994280e-002	(2.12587417828086e+001dB,4.40931314255770e-005°)	(1.19997364389329e+002dB,1.79999972079577e+002°)
3.98107170553497e-002	(2.12587417828044e+001dB,4.51201923965638e-005°)	(1.19997364389323e+002dB,1.79999971429226e+002°)
4.07380277804112e-002	(2.12587417827981e+001dB,4.61711766909559e-005°)	(1.19997364389318e+002dB,1.79999970763728e+002°)
4.16869383470335e-002	(2.12587417827935e+001dB,4.72466415544310e-005°)	(1.19997364389312e+002dB,1.79999970082727e+002°)
4.26579518801592e-002	(2.12587417827876e+001dB,4.83471572128215e-005°)	(1.19997364389305e+002dB,1.79999969385865e+002°)
4.36515832240165e-002	(2.12587417827815e+001dB,4.94733071740109e-005°)	(1.19997364389299e+002dB,1.79999968672770e+002°)
4.46683592150962e-002	(2.12587417827741e+001dB,5.06256885376897e-005°)	(1.19997364389292e+002dB,1.79999967943065e+002°)
4.57088189614874e-002	(2.12587417827683e+001dB,5.18049123115685e-005°)	(1.19997364389285e+002dB,1.79999967196363e+002°)
4.67735141287197e-002	(2.12587417827622e+001dB,5.30116037359285e-005°)	(1.19997364389277e+002dB,1.79999966432268e+002°)
4.78630092322637e-002	(2.12587417827529e+001dB,5.42464026143844e-005°)	(1.19997364389270e+002dB,1.79999965650375e+002°)
4.89778819368445e-002	(2.12587417827452e+001dB,5.55099636538251e-005°)	(1.19997364389261e+002dB,1.79999964850269e+002°)
5.01187233627271e-002	(2.12587417827381e+001dB,5.68029568108227e-005°)	(1.19997364389253e+002dB,1.79999964031527e+002°)
5.12861383991364e-002	(2.12587417827276e+001dB,5.81260676477330e-005°)	(1.19997364389244e+002dB,1.79999963193714e+002°)
5.24807460249771e-002	(2.12587417827197e+001dB,5.94799976952498e-005°)	(1.19997364389234e+002dB,1.79999962336385e+002°)
5.37031796370252e-002	(2.12587417827114e+001dB,6.08654648250291e-005°)	(1.19997364389224e+002dB,1.79999961459087e+002°)
5.49540873857623e-002	(2.12587417827007e+001dB,6.22832036302864e-005°)	(1.19997364389214e+002dB,1.79999960561354e+002°)
5.62341325190348e-002	(2.12587417826905e+001dB,6.37339658147625e-005°)	(1.19997364389203e+002dB,1.79999959642710e+002°)
5.75439937337156e-002	(2.12587417826808e+001dB,6.52185205917816e-005°)	(1.19997364389192e+002dB,1.79999958702668e+002°)
5.88843655355588e-002	(2.12587417826697e+001dB,6.67376550919540e-005°)	(1.19997364389180e+002dB,1.79999957740729e+002°)
6.02559586074356e-002	(2.12587417826570e+001dB,6.82921747806151e-005°)	(1.19997364389167e+002dB,1.79999956756384e+002°)
6.16595001861481e-002	(2.12587417826447e+001dB,6.98829038846455e-005°)	(1.19997364389154e+002dB,1.79999955749111e+002°)
6.30957344480192e-002	(2.12587417826319e+001dB,7.15106858297195e-005°)	(1.19997364389141e+002dB,1.79999954718375e+002°)
6.45654229034654e-002	(2.12587417826175e+001dB,7.31763836874419e-005°)	(1.19997364389126e+002dB,1.79999953663631e+002°)
6.60693448007594e-002	(2.12587417826034e+001dB,7.48808806327058e-005°)	(1.19997364389111e+002dB,1.79999952584318e+002°)
6.76082975391980e-002	(2.12587417825897e+001dB,7.66250804125392e-005°)	(1.19997364389096e+002dB,1.79999951479865e+002°)
6.91830970918935e-002	(2.12587417825752e+001dB,7.84099078248374e-005°)	(1.19997364389079e+002dB,1.79999950349686e+002°)
7.07945784384136e-002	(2.12587417825591e+001dB,8.02363092086480e-005°)	(1.19997364389062e+002dB,1.79999949193182e+002°)
7.24435960074988e-002	(2.12587417825412e+001dB,8.21052529463244e-005°)	(1.19997364389044e+002dB,1.79999948009739e+002°)
7.41310241300916e-002	(2.12587417825235e+001dB,8.40177299763974e-005°)	(1.19997364389025e+002dB,1.79999946798730e+002°)
7.58577575029182e-002	(2.12587417825059e+001dB,8.59747543196760e-005°)	(1.19997364389006e+002dB,1.79999945559513e+002°)
7.76247116628690e-002	(2.12587417824865e+001dB,8.79773636164319e-005°)	(1.19997364388985e+002dB,1.79999944291431e+002°)
7.94328234724279e-002	(2.12587417824661e+001dB,9.00266196765979e-005°)	(1.19997364388963e+002dB,1.79999942993812e+002°)
8.12830516164097e-002	(2.12587417824439e+001dB,9.21236090431904e-005°)	(1.19997364388941e+002dB,1.79999941665968e+002°)
8.31763771102669e-002	(2.12587417824206e+001dB,9.42694435674332e-005°)	(1.19997364388917e+002dB,1.79999940307193e+002°)
8.51138038202374e-002	(2.12587417823992e+001dB,9.64652609993248e-005°)	(1.19997364388892e+002dB,1.79999938916769e+002°)
8.70963589956078e-002	(2.12587417823748e+001dB,9.87122255905800e-005°)	(1.19997364388866e+002dB,1.79999937493958e+002°)
8.91250938133743e-002	(2.12587417823492e+001dB,1.01011528711349e-004°)	(1.19997364388839e+002dB,1.79999936038005e+002°)
9.12010839355907e-002	(2.12587417823224e+001dB,1.03364389482993e-004°)	(1.19997364388810e+002dB,1.79999934548139e+002°)
9.33254300796988e-002	(2.12587417822933e+001dB,1.05772055423396e-004°)	(1.19997364388780e+002dB,1.79999933023569e+002°)
9.54992586021433e-002	(2.12587417822649e+001dB,1.08235803108676e-004°)	(1.19997364388749e+002dB,1.79999931463488e+002°)
9.77237220955808e-002	(2.12587417822341e+001dB,1.10756938851054e-004°)	(1.19997364388716e+002dB,1.79999929867068e+002°)
9.99999999999997e-002	(2.12587417822019e+001dB,1.13336799390025e-004°)	(1.19997364388682e+002dB,1.79999928233462e+002°)
1.02329299228075e-001	(2.12587417821691e+001dB,1.15976752601892e-004°)	(1.19997364388646e+002dB,1.79999926561804e+002°)
1.04712854805090e-001	(2.12587417821328e+001dB,1.18678198224606e-004°)	(1.19997364388608e+002dB,1.79999924851209e+002°)
1.07151930523760e-001	(2.12587417820968e+001dB,1.21442568600958e-004°)	(1.19997364388569e+002dB,1.79999923100769e+002°)
1.09647819614318e-001	(2.12587417820571e+001dB,1.24271329436684e-004°)	(1.19997364388528e+002dB,1.79999921309556e+002°)
1.12201845430196e-001	(2.12587417820175e+001dB,1.27165980578311e-004°)	(1.19997364388485e+002dB,1.79999919476620e+002°)
1.14815362149688e-001	(2.12587417819740e+001dB,1.30128056808390e-004°)	(1.19997364388439e+002dB,1.79999917600989e+002°)
1.17489755493953e-001	(2.12587417819276e+001dB,1.33159128659263e-004°)	(1.19997364388392e+002dB,1.79999915681670e+002°)
1.20226443461741e-001	(2.12587417818820e+001dB,1.36260803244972e-004°)	(1.19997364388342e+002dB,1.79999913717644e+002°)
1.23026877081238e-001	(2.12587417818342e+001dB,1.39434725115116e-004°)	(1.19997364388290e+002dB,1.79999911707869e+002°)
1.25892541179416e-001	(2.12587417817841e+001dB,1.42682577125316e-004°)	(1.19997364388236e+002dB,1.79999909651282e+002°)
1.28824955169313e-001	(2.12587417817296e+001dB,1.46006081329651e-004°)	(1.19997364388179e+002dB,1.79999907546790e+002°)
1.31825673855640e-001	(2.12587417816726e+001dB,1.49406999894763e-004°)	(1.19997364388119e+002dB,1.79999905393278e+002°)
1.34896288259165e-001	(2.12587417816150e+001dB,1.52887136032095e-004°)	(1.19997364388057e+002dB,1.79999903189604e+002°)
1.38038426460288e-001	(2.12587417815536e+001dB,1.56448334956791e-004°)	(1.19997364387992e+002dB,1.79999900934600e+002°)
1.41253754462275e-001	(2.12587417814902e+001dB,1.60092484863783e-004°)	(1.19997364387923e+002dB,1.79999898627071e+002°)
1.44543977074592e-001	(2.12587417814200e+001dB,1.63821517930004e-004°)	(1.19997364387852e+002dB,1.79999896265792e+002°)
1.47910838816820e-001	(2.12587417813514e+001dB,1.67637411338466e-004°)	(1.19997364387776e+002dB,1.79999893849512e+002°)
1.51356124843620e-001	(2.12587417812766e+001dB,1.71542188326310e-004°)	(1.19997364387698e+002dB,1.79999891376950e+002°)
1.54881661891248e-001	(2.12587417811993e+001dB,1.75537919258955e-004°)	(1.19997364387616e+002dB,1.79999888846794e+002°)
1.58489319246111e-001	(2.12587417811193e+001dB,1.79626722725730e-004°)	(1.19997364387529e+002dB,1.79999886257703e+002°)
1.62181009735892e-001	(2.12587417810322e+001dB,1.83810766665068e-004°)	(1.19997364387438e+002dB,1.79999883608305e+002°)
1.65958690743755e-001	(2.12587417809444e+001dB,1.88092269512691e-004°)	(1.19997364387343e+002dB,1.79999880897194e+002°)
1.69824365246174e-001	(2.12587417808505e+001dB,1.92473501379076e-004°)	(1.19997364387244e+002dB,1.79999878122933e+002°)
1.73780082874937e-001	(2.12587417807541e+001dB,1.96956785251278e-004°)	(1.19997364387141e+002dB,1.79999875284052e+002°)
1.77827941003892e-001	(2.12587417806532e+001dB,2.01544498226523e-004°)	(1.19997364387032e+002dB,1.79999872379044e+002°)
1.81970085860998e-001	(2.12587417805455e+001dB,2.06239072771621e-004°)	(1.19997364386919e+002dB,1.79999869406370e+002°)
1.86208713666286e-001	(2.12587417804347e+001dB,2.11042998012867e-004°)	(1.19997364386800e+002dB,1.79999866364454e+002°)
1.90546071796324e-001	(2.12587417803168e+001dB,2.15958821056113e-004°)	(1.19997364386675e+002dB,1.79999863251682e+002°)
1.94984459975804e-001	(2.12587417801952e+001dB,2.20989148335385e-004°)	(1.19997364386545e+002dB,1.79999860066405e+002°)
1.99526231496887e-001	(2.12587417800659e+001dB,2.26136646997993e-004°)	(1.19997364386408e+002dB,1.79999856806933e+002°)
2.04173794466952e-001	(2.12587417799316e+001dB,2.31404046317871e-004°)	(1.19997364386265e+002dB,1.79999853471538e+002°)
2.08929613085403e-001	(2.12587417797909e+001dB,2.36794139139675e-004°)	(1.19997364386115e+002dB,1.79999850058452e+002°)
2.13796208950222e-001	(2.12587417796436e+001dB,2.42309783363184e-004°)	(1.19997364385958e+002dB,1.79999846565865e+002°)
2.18776162394954e-001	(2.12587417794884e+001dB,2.47953903457087e-004°)	(1.19997364385794e+002dB,1.79999842991925e+002°)
2.23872113856833e-001	(2.12587417793269e+001dB,2.53729492009602e-004°)	(1.19997364385622e+002dB,1.79999839334737e+002°)
2.29086765276776e-001	(2.12587417791578e+001dB,2.59639611315172e-004°)	(1.19997364385442e+002dB,1.79999835592363e+002°)
2.34422881531991e-001	(2.12587417789816e+001dB,2.65687394999090e-004°)	(1.19997364385254e+002dB,1.79999831762817e+002°)
2.39883291901948e-001	(2.12587417787972e+001dB,2.71876049677771e-004°)	(1.19997364385056e+002dB,1.79999827844070e+002°)
2.45470891568502e-001	(2.12587417785996e+001dB,2.78208856659001e-004°)	(1.19997364384848e+002dB,1.79999823834043e+002°)
2.51188643150957e-001	(2.12587417783982e+001dB,2.84689173682544e-004°)	(1.19997364384632e+002dB,1.79999819730611e+002°)
2.57039578276885e-001	(2.12587417781834e+001dB,2.91320436700340e-004°)	(1.19997364384405e+002dB,1.79999815531598e+002°)
2.63026799189537e-001	(2.12587417779623e+001dB,2.98106161696741e-004°)	(1.19997364384168e+002dB,1.79999811234777e+002°)
2.69153480392690e-001	(2.12587417777279e+001dB,3.05049946555724e-004°)	(1.19997364383919e+002dB,1.79999806837871e+002°)
2.75422870333815e-001	(2.12587417774825e+001dB,3.12155472965924e-004°)	(1.19997364383659e+002dB,1.79999802338547e+002°)
2.81838293126444e-001	(2.12587417772265e+001dB,3.19426508373647e-004°)	(1.19997364383386e+002dB,1.79999797734421e+002°)
2.88403150312659e-001	(2.12587417769584e+001dB,3.26866907980967e-004°)	(1.19997364383101e+002dB,1.79999793023051e+002°)
2.95120922666637e-001	(2.12587417766778e+001dB,3.34480616788235e-004°)	(1.19997364382802e+002dB,1.79999788201939e+002°)
3.01995172040200e-001	(2.12587417763844e+001dB,3.42271671686868e-004°)	(1.19997364382488e+002dB,1.79999783268529e+002°)
3.09029543251358e-001	(2.12587417760756e+001dB,3.50244203602131e-004°)	(1.19997364382160e+002dB,1.79999778220205e+002°)
3.16227766016837e-001	(2.12587417757534e+001dB,3.58402439677678e-004°)	(1.19997364381817e+002dB,1.79999773054290e+002°)
3.23593656929627e-001	(2.12587417754159e+001dB,3.66750705521826e-004°)	(1.19997364381458e+002dB,1.79999767768046e+002°)
3.31131121482590e-001	(2.12587417750626e+001dB,3.75293427499978e-004°)	(1.19997364381082e+002dB,1.79999762358670e+002°)
3.38844156139201e-001	(2.12587417746935e+001dB,3.84035135079618e-004°)	(1.19997364380688e+002dB,1.79999756823293e+002°)
3.46736850452530e-001	(2.12587417743051e+001dB,3.92980463235331e-004°)	(1.19997364380275e+002dB,1.79999751158980e+002°)
3.54813389233574e-001	(2.12587417738970e+001dB,4.02134154900916e-004°)	(1.19997364379842e+002dB,1.79999745362729e+002°)
3.63078054770100e-001	(2.12587417734712e+001dB,4.11501063490875e-004°)	(1.19997364379390e+002dB,1.79999739431466e+002°)
3.71535229097171e-001	(2.12587417730273e+001dB,4.21086155470533e-004°)	(1.19997364378916e+002dB,1.79999733362046e+002°)
3.80189396320559e-001	(2.12587417725625e+001dB,4.30894512985646e-004°)	(1.19997364378420e+002dB,1.79999727151251e+002°)
3.89045144994279e-001	(2.12587417720737e+001dB,4.40931336564074e-004°)	(1.19997364377901e+002dB,1.79999720795788e+002°)
3.98107170553495e-001	(2.12587417715616e+001dB,4.51201947870333e-004°)	(1.19997364377356e+002dB,1.79999714292288e+002°)
4.07380277804111e-001	(2.12587417710277e+001dB,4.61711792523309e-004°)	(1.19997364376786e+002dB,1.79999707637301e+002°)
4.16869383470333e-001	(2.12587417704677e+001dB,4.72466442990561e-004°)	(1.19997364376190e+002dB,1.79999700827301e+002°)
4.26579518801591e-001	(2.12587417698803e+001dB,4.83471601536906e-004°)	(1.19997364375566e+002dB,1.79999693858675e+002°)
4.36515832240164e-001	(2.12587417692648e+001dB,4.94733103251598e-004°)	(1.19997364374911e+002dB,1.79999686727728e+002°)
