frequency	V(onoise)	V(r1)
1.000000000000000e-001	1.258343e-006	8.037983e-007
1.023292992280754e-001	1.250495e-006	8.037983e-007
1.047128548050900e-001	1.242779e-006	8.037983e-007
1.071519305237607e-001	1.235191e-006	8.037983e-007
1.096478196143185e-001	1.227731e-006	8.037983e-007
1.122018454301964e-001	1.220397e-006	8.037983e-007
1.148153621496883e-001	1.213186e-006	8.037983e-007
1.174897554939530e-001	1.206099e-006	8.037983e-007
1.202264434617413e-001	1.199132e-006	8.037983e-007
1.230268770812382e-001	1.192284e-006	8.037983e-007
1.258925411794167e-001	1.185554e-006	8.037983e-007
1.288249551693134e-001	1.178940e-006	8.037983e-007
1.318256738556407e-001	1.172441e-006	8.037983e-007
1.348962882591653e-001	1.166054e-006	8.037983e-007
1.380384264602884e-001	1.159779e-006	8.037983e-007
1.412537544622754e-001	1.153614e-006	8.037983e-007
1.445439770745927e-001	1.147557e-006	8.037983e-007
1.479108388168207e-001	1.141607e-006	8.037983e-007
1.513561248436207e-001	1.135762e-006	8.037983e-007
1.548816618912480e-001	1.130021e-006	8.037983e-007
1.584893192461112e-001	1.124383e-006	8.037983e-007
1.621810097358929e-001	1.118845e-006	8.037983e-007
1.659586907437559e-001	1.113407e-006	8.037983e-007
1.698243652461743e-001	1.108067e-006	8.037983e-007
1.737800828749374e-001	1.102823e-006	8.037983e-007
1.778279410038921e-001	1.097675e-006	8.037983e-007
1.819700858609982e-001	1.092620e-006	8.037983e-007
1.862087136662866e-001	1.087658e-006	8.037983e-007
1.905460717963245e-001	1.082786e-006	8.037983e-007
1.949844599758043e-001	1.078005e-006	8.037983e-007
1.995262314968878e-001	1.073311e-006	8.037983e-007
2.041737944669527e-001	1.068705e-006	8.037983e-007
2.089296130854037e-001	1.064184e-006	8.037983e-007
2.137962089502230e-001	1.059747e-006	8.037983e-007
2.187761623949550e-001	1.055393e-006	8.037983e-007
2.238721138568337e-001	1.051121e-006	8.037983e-007
2.290867652767770e-001	1.046930e-006	8.037983e-007
2.344228815319919e-001	1.042817e-006	8.037983e-007
2.398832919019487e-001	1.038783e-006	8.037983e-007
2.454708915685027e-001	1.034825e-006	8.037983e-007
2.511886431509577e-001	1.030942e-006	8.037983e-007
2.570395782768861e-001	1.027134e-006	8.037983e-007
2.630267991895379e-001	1.023398e-006	8.037983e-007
2.691534803926912e-001	1.019735e-006	8.037983e-007
2.754228703338163e-001	1.016142e-006	8.037983e-007
2.818382931264450e-001	1.012619e-006	8.037983e-007
2.884031503126602e-001	1.009163e-006	8.037983e-007
2.951209226666382e-001	1.005776e-006	8.037983e-007
3.019951720402012e-001	1.002454e-006	8.037983e-007
3.090295432513586e-001	9.991967e-007	8.037983e-007
3.162277660168375e-001	9.960037e-007	8.037983e-007
3.235936569296278e-001	9.928733e-007	8.037983e-007
3.311311214825907e-001	9.898047e-007	8.037983e-007
3.388441561392021e-001	9.867966e-007	8.037983e-007
3.467368504525312e-001	9.838483e-007	8.037983e-007
3.548133892335750e-001	9.809584e-007	8.037983e-007
3.630780547701009e-001	9.781261e-007	8.037983e-007
3.715352290971720e-001	9.753502e-007	8.037983e-007
3.801893963205607e-001	9.726300e-007	8.037983e-007
3.890451449942800e-001	9.699643e-007	8.037983e-007
3.981071705534967e-001	9.673521e-007	8.037983e-007
4.073802778041121e-001	9.647925e-007	8.037983e-007
4.168693834703348e-001	9.622847e-007	8.037983e-007
4.265795188015920e-001	9.598277e-007	8.037983e-007
4.365158322401653e-001	9.574204e-007	8.037983e-007
4.466835921509624e-001	9.550621e-007	8.037983e-007
4.570881896148742e-001	9.527519e-007	8.037983e-007
4.677351412871974e-001	9.504888e-007	8.037983e-007
4.786300923226375e-001	9.482720e-007	8.037983e-007
4.897788193684454e-001	9.461006e-007	8.037983e-007
5.011872336272715e-001	9.439739e-007	8.037983e-007
5.128613839913641e-001	9.418908e-007	8.037983e-007
5.248074602497718e-001	9.398508e-007	8.037983e-007
5.370317963702519e-001	9.378530e-007	8.037983e-007
5.495408738576236e-001	9.358964e-007	8.037983e-007
5.623413251903481e-001	9.339805e-007	8.037983e-007
5.754399373371559e-001	9.321043e-007	8.037983e-007
5.888436553555879e-001	9.302672e-007	8.037983e-007
6.025595860743567e-001	9.284685e-007	8.037983e-007
6.165950018614811e-001	9.267072e-007	8.037983e-007
6.309573444801921e-001	9.249829e-007	8.037983e-007
6.456542290346544e-001	9.232946e-007	8.037983e-007
6.606934480075949e-001	9.216419e-007	8.037983e-007
6.760829753919806e-001	9.200239e-007	8.037983e-007
6.918309709189353e-001	9.184399e-007	8.037983e-007
7.079457843841367e-001	9.168893e-007	8.037983e-007
7.244359600749888e-001	9.153716e-007	8.037983e-007
7.413102413009162e-001	9.138859e-007	8.037983e-007
7.585775750291823e-001	9.124317e-007	8.037983e-007
7.762471166286903e-001	9.110084e-007	8.037983e-007
7.943282347242799e-001	9.096153e-007	8.037983e-007
8.128305161640976e-001	9.082518e-007	8.037983e-007
8.317637711026693e-001	9.069175e-007	8.037983e-007
8.511380382023747e-001	9.056116e-007	8.037983e-007
8.709635899560788e-001	9.043335e-007	8.037983e-007
8.912509381337437e-001	9.030829e-007	8.037983e-007
9.120108393559078e-001	9.018590e-007	8.037983e-007
9.332543007969890e-001	9.006614e-007	8.037983e-007
9.549925860214339e-001	8.994895e-007	8.037983e-007
9.772372209558086e-001	8.983428e-007	8.037983e-007
9.999999999999978e-001	8.972208e-007	8.037983e-007
1.023292992280752e+000	8.961230e-007	8.037983e-007
1.047128548050897e+000	8.950489e-007	8.037983e-007
1.071519305237604e+000	8.939979e-007	8.037983e-007
1.096478196143182e+000	8.929697e-007	8.037983e-007
1.122018454301961e+000	8.919637e-007	8.037983e-007
1.148153621496880e+000	8.909796e-007	8.037983e-007
1.174897554939527e+000	8.900168e-007	8.037983e-007
1.202264434617410e+000	8.890750e-007	8.037983e-007
1.230268770812378e+000	8.881535e-007	8.037983e-007
1.258925411794164e+000	8.872522e-007	8.037983e-007
1.288249551693131e+000	8.863704e-007	8.037983e-007
1.318256738556404e+000	8.855079e-007	8.037983e-007
1.348962882591650e+000	8.846642e-007	8.037983e-007
1.380384264602881e+000	8.838389e-007	8.037983e-007
1.412537544622750e+000	8.830318e-007	8.037983e-007
1.445439770745923e+000	8.822422e-007	8.037983e-007
1.479108388168203e+000	8.814699e-007	8.037983e-007
1.513561248436204e+000	8.807145e-007	8.037983e-007
1.548816618912477e+000	8.799758e-007	8.037983e-007
1.584893192461109e+000	8.792532e-007	8.037983e-007
1.621810097358925e+000	8.785465e-007	8.037983e-007
1.659586907437555e+000	8.778554e-007	8.037983e-007
1.698243652461739e+000	8.771794e-007	8.037983e-007
1.737800828749370e+000	8.765184e-007	8.037983e-007
1.778279410038917e+000	8.758719e-007	8.037983e-007
1.819700858609977e+000	8.752396e-007	8.037983e-007
1.862087136662861e+000	8.746213e-007	8.037983e-007
1.905460717963241e+000	8.740167e-007	8.037983e-007
1.949844599758039e+000	8.734254e-007	8.037983e-007
1.995262314968873e+000	8.728472e-007	8.037983e-007
2.041737944669523e+000	8.722818e-007	8.037983e-007
2.089296130854033e+000	8.717289e-007	8.037983e-007
2.137962089502225e+000	8.711882e-007	8.037983e-007
2.187761623949545e+000	8.706596e-007	8.037983e-007
2.238721138568332e+000	8.701426e-007	8.037983e-007
2.290867652767766e+000	8.696371e-007	8.037983e-007
2.344228815319914e+000	8.691429e-007	8.037983e-007
2.398832919019482e+000	8.686596e-007	8.037983e-007
2.454708915685022e+000	8.681870e-007	8.037983e-007
2.511886431509572e+000	8.677250e-007	8.037983e-007
2.570395782768855e+000	8.672732e-007	8.037983e-007
2.630267991895373e+000	8.668316e-007	8.037983e-007
2.691534803926906e+000	8.663997e-007	8.037983e-007
2.754228703338157e+000	8.659775e-007	8.037983e-007
2.818382931264444e+000	8.655646e-007	8.037983e-007
2.884031503126595e+000	8.651610e-007	8.037983e-007
2.951209226666375e+000	8.647664e-007	8.037983e-007
3.019951720402005e+000	8.643806e-007	8.037983e-007
3.090295432513579e+000	8.640034e-007	8.037983e-007
3.162277660168367e+000	8.636346e-007	8.037983e-007
3.235936569296270e+000	8.632741e-007	8.037983e-007
3.311311214825898e+000	8.629216e-007	8.037983e-007
3.388441561392012e+000	8.625771e-007	8.037983e-007
3.467368504525302e+000	8.622402e-007	8.037983e-007
3.548133892335740e+000	8.619109e-007	8.037983e-007
3.630780547700999e+000	8.615889e-007	8.037983e-007
3.715352290971711e+000	8.612742e-007	8.037983e-007
3.801893963205597e+000	8.609665e-007	8.037983e-007
3.890451449942790e+000	8.606657e-007	8.037982e-007
3.981071705534956e+000	8.603716e-007	8.037982e-007
4.073802778041110e+000	8.600842e-007	8.037982e-007
4.168693834703337e+000	8.598032e-007	8.037982e-007
4.265795188015909e+000	8.595285e-007	8.037982e-007
4.365158322401642e+000	8.592600e-007	8.037982e-007
4.466835921509612e+000	8.589975e-007	8.037982e-007
4.570881896148731e+000	8.587409e-007	8.037982e-007
4.677351412871962e+000	8.584901e-007	8.037982e-007
4.786300923226363e+000	8.582449e-007	8.037982e-007
4.897788193684440e+000	8.580052e-007	8.037982e-007
5.011872336272701e+000	8.577709e-007	8.037982e-007
5.128613839913625e+000	8.575419e-007	8.037982e-007
5.248074602497702e+000	8.573180e-007	8.037982e-007
5.370317963702503e+000	8.570992e-007	8.037982e-007
5.495408738576220e+000	8.568853e-007	8.037982e-007
5.623413251903465e+000	8.566763e-007	8.037981e-007
5.754399373371542e+000	8.564718e-007	8.037981e-007
5.888436553555861e+000	8.562721e-007	8.037981e-007
6.025595860743549e+000	8.560768e-007	8.037981e-007
6.165950018614792e+000	8.558860e-007	8.037981e-007
6.309573444801902e+000	8.556994e-007	8.037981e-007
6.456542290346524e+000	8.555170e-007	8.037981e-007
6.606934480075928e+000	8.553388e-007	8.037981e-007
6.760829753919785e+000	8.551646e-007	8.037981e-007
6.918309709189331e+000	8.549943e-007	8.037980e-007
7.079457843841344e+000	8.548278e-007	8.037980e-007
7.244359600749864e+000	8.546651e-007	8.037980e-007
7.413102413009137e+000	8.545061e-007	8.037979e-007
7.585775750291798e+000	8.543507e-007	8.037979e-007
7.762471166286877e+000	8.541987e-007	8.037979e-007
7.943282347242774e+000	8.540503e-007	8.037979e-007
8.128305161640951e+000	8.539051e-007	8.037979e-007
8.317637711026666e+000	8.537633e-007	8.037979e-007
8.511380382023720e+000	8.536246e-007	8.037978e-007
8.709635899560761e+000	8.534890e-007	8.037978e-007
8.912509381337408e+000	8.533566e-007	8.037978e-007
9.120108393559049e+000	8.532271e-007	8.037978e-007
9.332543007969861e+000	8.531006e-007	8.037977e-007
9.549925860214309e+000	8.529769e-007	8.037977e-007
9.772372209558055e+000	8.528560e-007	8.037977e-007
9.999999999999947e+000	8.527379e-007	8.037977e-007
1.023292992280749e+001	8.526224e-007	8.037976e-007
1.047128548050894e+001	8.525095e-007	8.037975e-007
1.071519305237601e+001	8.523992e-007	8.037975e-007
1.096478196143179e+001	8.522914e-007	8.037975e-007
1.122018454301957e+001	8.521860e-007	8.037974e-007
1.148153621496876e+001	8.520830e-007	8.037974e-007
1.174897554939523e+001	8.519823e-007	8.037974e-007
1.202264434617406e+001	8.518840e-007	8.037973e-007
1.230268770812375e+001	8.517878e-007	8.037973e-007
1.258925411794160e+001	8.516938e-007	8.037972e-007
1.288249551693127e+001	8.516019e-007	8.037971e-007
1.318256738556400e+001	8.515121e-007	8.037971e-007
1.348962882591646e+001	8.514244e-007	8.037970e-007
1.380384264602877e+001	8.513386e-007	8.037970e-007
1.412537544622746e+001	8.512548e-007	8.037969e-007
1.445439770745919e+001	8.511728e-007	8.037969e-007
1.479108388168199e+001	8.510927e-007	8.037968e-007
1.513561248436199e+001	8.510144e-007	8.037967e-007
1.548816618912472e+001	8.509380e-007	8.037966e-007
1.584893192461104e+001	8.508632e-007	8.037965e-007
1.621810097358920e+001	8.507901e-007	8.037965e-007
1.659586907437550e+001	8.507187e-007	8.037964e-007
1.698243652461734e+001	8.506488e-007	8.037963e-007
1.737800828749365e+001	8.505806e-007	8.037962e-007
1.778279410038912e+001	8.505139e-007	8.037961e-007
1.819700858609972e+001	8.504487e-007	8.037960e-007
1.862087136662855e+001	8.503849e-007	8.037958e-007
1.905460717963235e+001	8.503227e-007	8.037957e-007
1.949844599758032e+001	8.502618e-007	8.037956e-007
1.995262314968866e+001	8.502023e-007	8.037955e-007
2.041737944669515e+001	8.501441e-007	8.037953e-007
2.089296130854025e+001	8.500872e-007	8.037952e-007
2.137962089502218e+001	8.500317e-007	8.037950e-007
2.187761623949537e+001	8.499774e-007	8.037949e-007
2.238721138568324e+001	8.499243e-007	8.037948e-007
2.290867652767757e+001	8.498724e-007	8.037946e-007
2.344228815319906e+001	8.498216e-007	8.037944e-007
2.398832919019474e+001	8.497720e-007	8.037942e-007
2.454708915685013e+001	8.497235e-007	8.037940e-007
2.511886431509563e+001	8.496761e-007	8.037938e-007
2.570395782768846e+001	8.496298e-007	8.037936e-007
2.630267991895363e+001	8.495845e-007	8.037933e-007
2.691534803926897e+001	8.495402e-007	8.037931e-007
2.754228703338147e+001	8.494969e-007	8.037929e-007
2.818382931264434e+001	8.494546e-007	8.037926e-007
2.884031503126585e+001	8.494132e-007	8.037924e-007
2.951209226666364e+001	8.493727e-007	8.037921e-007
3.019951720401994e+001	8.493332e-007	8.037917e-007
3.090295432513568e+001	8.492945e-007	8.037915e-007
3.162277660168356e+001	8.492566e-007	8.037911e-007
3.235936569296258e+001	8.492196e-007	8.037908e-007
3.311311214825886e+001	8.491834e-007	8.037904e-007
3.388441561392000e+001	8.491481e-007	8.037900e-007
3.467368504525290e+001	8.491135e-007	8.037897e-007
3.548133892335728e+001	8.490796e-007	8.037892e-007
3.630780547700986e+001	8.490465e-007	8.037889e-007
3.715352290971697e+001	8.490141e-007	8.037884e-007
3.801893963205583e+001	8.489824e-007	8.037879e-007
3.890451449942776e+001	8.489515e-007	8.037874e-007
3.981071705534941e+001	8.489211e-007	8.037869e-007
4.073802778041095e+001	8.488915e-007	8.037863e-007
4.168693834703321e+001	8.488624e-007	8.037858e-007
4.265795188015893e+001	8.488340e-007	8.037852e-007
4.365158322401625e+001	8.488062e-007	8.037846e-007
4.466835921509595e+001	8.487790e-007	8.037840e-007
4.570881896148713e+001	8.487523e-007	8.037833e-007
4.677351412871944e+001	8.487262e-007	8.037825e-007
4.786300923226344e+001	8.487007e-007	8.037818e-007
4.897788193684422e+001	8.486757e-007	8.037811e-007
5.011872336272682e+001	8.486512e-007	8.037802e-007
5.128613839913606e+001	8.486272e-007	8.037794e-007
5.248074602497682e+001	8.486037e-007	8.037785e-007
5.370317963702482e+001	8.485807e-007	8.037775e-007
5.495408738576199e+001	8.485581e-007	8.037766e-007
5.623413251903443e+001	8.485359e-007	8.037755e-007
5.754399373371521e+001	8.485142e-007	8.037745e-007
5.888436553555840e+001	8.484930e-007	8.037733e-007
6.025595860743526e+001	8.484721e-007	8.037722e-007
6.165950018614769e+001	8.484516e-007	8.037709e-007
6.309573444801878e+001	8.484315e-007	8.037696e-007
6.456542290346499e+001	8.484117e-007	8.037683e-007
6.606934480075903e+001	8.483923e-007	8.037669e-007
6.760829753919759e+001	8.483733e-007	8.037654e-007
6.918309709189305e+001	8.483546e-007	8.037638e-007
7.079457843841317e+001	8.483362e-007	8.037622e-007
7.244359600749837e+001	8.483181e-007	8.037605e-007
7.413102413009111e+001	8.483003e-007	8.037588e-007
7.585775750291771e+001	8.482828e-007	8.037569e-007
7.762471166286849e+001	8.482655e-007	8.037550e-007
7.943282347242744e+001	8.482485e-007	8.037529e-007
8.128305161640920e+001	8.482318e-007	8.037508e-007
8.317637711026636e+001	8.482153e-007	8.037485e-007
8.511380382023688e+001	8.481990e-007	8.037462e-007
8.709635899560728e+001	8.481829e-007	8.037438e-007
8.912509381337374e+001	8.481670e-007	8.037412e-007
9.120108393559013e+001	8.481513e-007	8.037385e-007
9.332543007969824e+001	8.481358e-007	8.037357e-007
9.549925860214270e+001	8.481204e-007	8.037327e-007
9.772372209558016e+001	8.481052e-007	8.037297e-007
9.999999999999906e+001	8.480901e-007	8.037265e-007
1.023292992280745e+002	8.480751e-007	8.037231e-007
1.047128548050890e+002	8.480602e-007	8.037196e-007
1.071519305237596e+002	8.480454e-007	8.037159e-007
1.096478196143175e+002	8.480307e-007	8.037121e-007
1.122018454301953e+002	8.480161e-007	8.037080e-007
1.148153621496872e+002	8.480015e-007	8.037038e-007
1.174897554939518e+002	8.479870e-007	8.036994e-007
1.202264434617402e+002	8.479724e-007	8.036947e-007
1.230268770812370e+002	8.479579e-007	8.036899e-007
1.258925411794155e+002	8.479435e-007	8.036848e-007
1.288249551693122e+002	8.479290e-007	8.036795e-007
1.318256738556394e+002	8.479144e-007	8.036740e-007
1.348962882591640e+002	8.478997e-007	8.036682e-007
1.380384264602871e+002	8.478851e-007	8.036621e-007
1.412537544622740e+002	8.478703e-007	8.036558e-007
1.445439770745913e+002	8.478555e-007	8.036492e-007
1.479108388168193e+002	8.478405e-007	8.036422e-007
1.513561248436193e+002	8.478253e-007	8.036350e-007
1.548816618912466e+002	8.478100e-007	8.036274e-007
1.584893192461097e+002	8.477946e-007	8.036195e-007
1.621810097358913e+002	8.477789e-007	8.036111e-007
1.659586907437543e+002	8.477631e-007	8.036025e-007
1.698243652461727e+002	8.477470e-007	8.035934e-007
1.737800828749357e+002	8.477307e-007	8.035839e-007
1.778279410038904e+002	8.477140e-007	8.035740e-007
1.819700858609964e+002	8.476972e-007	8.035636e-007
1.862087136662848e+002	8.476799e-007	8.035528e-007
1.905460717963227e+002	8.476623e-007	8.035414e-007
1.949844599758025e+002	8.476443e-007	8.035296e-007
1.995262314968859e+002	8.476260e-007	8.035172e-007
2.041737944669508e+002	8.476072e-007	8.035043e-007
2.089296130854017e+002	8.475880e-007	8.034908e-007
2.137962089502209e+002	8.475683e-007	8.034767e-007
2.187761623949529e+002	8.475482e-007	8.034619e-007
2.238721138568316e+002	8.475274e-007	8.034465e-007
2.290867652767749e+002	8.475061e-007	8.034305e-007
2.344228815319897e+002	8.474842e-007	8.034137e-007
2.398832919019465e+002	8.474617e-007	8.033962e-007
2.454708915685004e+002	8.474386e-007	8.033779e-007
2.511886431509553e+002	8.474147e-007	8.033588e-007
2.570395782768836e+002	8.473901e-007	8.033389e-007
2.630267991895354e+002	8.473648e-007	8.033181e-007
2.691534803926887e+002	8.473386e-007	8.032964e-007
2.754228703338137e+002	8.473116e-007	8.032738e-007
2.818382931264423e+002	8.472838e-007	8.032502e-007
2.884031503126574e+002	8.472550e-007	8.032256e-007
2.951209226666354e+002	8.472253e-007	8.032000e-007
3.019951720401983e+002	8.471946e-007	8.031732e-007
3.090295432513557e+002	8.471628e-007	8.031454e-007
3.162277660168345e+002	8.471300e-007	8.031163e-007
3.235936569296247e+002	8.470960e-007	8.030861e-007
3.311311214825875e+002	8.470609e-007	8.030546e-007
3.388441561391988e+002	8.470245e-007	8.030219e-007
3.467368504525278e+002	8.469869e-007	8.029877e-007
3.548133892335715e+002	8.469480e-007	8.029522e-007
3.630780547700973e+002	8.469077e-007	8.029153e-007
3.715352290971684e+002	8.468660e-007	8.028769e-007
3.801893963205569e+002	8.468228e-007	8.028369e-007
3.890451449942762e+002	8.467782e-007	8.027954e-007
3.981071705534927e+002	8.467320e-007	8.027523e-007
4.073802778041081e+002	8.466841e-007	8.027074e-007
4.168693834703306e+002	8.466347e-007	8.026609e-007
4.265795188015877e+002	8.465835e-007	8.026126e-007
4.365158322401609e+002	8.465306e-007	8.025625e-007
4.466835921509579e+002	8.464758e-007	8.025104e-007
4.570881896148697e+002	8.464192e-007	8.024566e-007
4.677351412871927e+002	8.463606e-007	8.024007e-007
4.786300923226327e+002	8.463002e-007	8.023428e-007
4.897788193684405e+002	8.462377e-007	8.022829e-007
5.011872336272664e+002	8.461732e-007	8.022208e-007
5.128613839913588e+002	8.461066e-007	8.021567e-007
5.248074602497665e+002	8.460378e-007	8.020903e-007
5.370317963702464e+002	8.459670e-007	8.020218e-007
5.495408738576181e+002	8.458938e-007	8.019509e-007
5.623413251903425e+002	8.458184e-007	8.018778e-007
5.754399373371501e+002	8.457408e-007	8.018023e-007
5.888436553555820e+002	8.456608e-007	8.017246e-007
6.025595860743506e+002	8.455785e-007	8.016444e-007
6.165950018614748e+002	8.454938e-007	8.015618e-007
6.309573444801856e+002	8.454068e-007	8.014768e-007
6.456542290346476e+002	8.453174e-007	8.013894e-007
6.606934480075879e+002	8.452255e-007	8.012995e-007
6.760829753919735e+002	8.451313e-007	8.012071e-007
