Freq.	V(vout)
1.00000000000000e-002	(7.99998983874392e+001dB,1.79999999979561e+002°)
1.02329299228075e-002	(7.99998983874392e+001dB,1.79999999979085e+002°)
1.04712854805090e-002	(7.99998983874392e+001dB,1.79999999978598e+002°)
1.07151930523761e-002	(7.99998983874392e+001dB,1.79999999978100e+002°)
1.09647819614318e-002	(7.99998983874392e+001dB,1.79999999977590e+002°)
1.12201845430196e-002	(7.99998983874392e+001dB,1.79999999977068e+002°)
1.14815362149688e-002	(7.99998983874392e+001dB,1.79999999976533e+002°)
1.17489755493953e-002	(7.99998983874392e+001dB,1.79999999975987e+002°)
1.20226443461741e-002	(7.99998983874392e+001dB,1.79999999975428e+002°)
1.23026877081238e-002	(7.99998983874392e+001dB,1.79999999974855e+002°)
1.25892541179417e-002	(7.99998983874392e+001dB,1.79999999974269e+002°)
1.28824955169313e-002	(7.99998983874392e+001dB,1.79999999973670e+002°)
1.31825673855641e-002	(7.99998983874392e+001dB,1.79999999973057e+002°)
1.34896288259165e-002	(7.99998983874392e+001dB,1.79999999972429e+002°)
1.38038426460288e-002	(7.99998983874392e+001dB,1.79999999971787e+002°)
1.41253754462275e-002	(7.99998983874392e+001dB,1.79999999971130e+002°)
1.44543977074593e-002	(7.99998983874392e+001dB,1.79999999970457e+002°)
1.47910838816821e-002	(7.99998983874392e+001dB,1.79999999969769e+002°)
1.51356124843621e-002	(7.99998983874392e+001dB,1.79999999969065e+002°)
1.54881661891248e-002	(7.99998983874392e+001dB,1.79999999968345e+002°)
1.58489319246111e-002	(7.99998983874392e+001dB,1.79999999967607e+002°)
1.62181009735893e-002	(7.99998983874392e+001dB,1.79999999966853e+002°)
1.65958690743756e-002	(7.99998983874392e+001dB,1.79999999966081e+002°)
1.69824365246174e-002	(7.99998983874392e+001dB,1.79999999965290e+002°)
1.73780082874937e-002	(7.99998983874392e+001dB,1.79999999964482e+002°)
1.77827941003892e-002	(7.99998983874392e+001dB,1.79999999963655e+002°)
1.81970085860998e-002	(7.99998983874392e+001dB,1.79999999962808e+002°)
1.86208713666287e-002	(7.99998983874392e+001dB,1.79999999961942e+002°)
1.90546071796325e-002	(7.99998983874392e+001dB,1.79999999961055e+002°)
1.94984459975804e-002	(7.99998983874392e+001dB,1.79999999960148e+002°)
1.99526231496888e-002	(7.99998983874392e+001dB,1.79999999959220e+002°)
2.04173794466953e-002	(7.99998983874392e+001dB,1.79999999958270e+002°)
2.08929613085404e-002	(7.99998983874392e+001dB,1.79999999957298e+002°)
2.13796208950223e-002	(7.99998983874392e+001dB,1.79999999956303e+002°)
2.18776162394955e-002	(7.99998983874392e+001dB,1.79999999955285e+002°)
2.23872113856834e-002	(7.99998983874392e+001dB,1.79999999954244e+002°)
2.29086765276777e-002	(7.99998983874392e+001dB,1.79999999953178e+002°)
2.34422881531992e-002	(7.99998983874392e+001dB,1.79999999952087e+002°)
2.39883291901949e-002	(7.99998983874392e+001dB,1.79999999950971e+002°)
2.45470891568503e-002	(7.99998983874392e+001dB,1.79999999949829e+002°)
2.51188643150958e-002	(7.99998983874392e+001dB,1.79999999948661e+002°)
2.57039578276886e-002	(7.99998983874392e+001dB,1.79999999947465e+002°)
2.63026799189538e-002	(7.99998983874392e+001dB,1.79999999946241e+002°)
2.69153480392691e-002	(7.99998983874392e+001dB,1.79999999944989e+002°)
2.75422870333816e-002	(7.99998983874392e+001dB,1.79999999943708e+002°)
2.81838293126445e-002	(7.99998983874392e+001dB,1.79999999942396e+002°)
2.88403150312660e-002	(7.99998983874392e+001dB,1.79999999941055e+002°)
2.95120922666638e-002	(7.99998983874392e+001dB,1.79999999939682e+002°)
3.01995172040201e-002	(7.99998983874392e+001dB,1.79999999938277e+002°)
3.09029543251359e-002	(7.99998983874392e+001dB,1.79999999936839e+002°)
3.16227766016838e-002	(7.99998983874392e+001dB,1.79999999935368e+002°)
3.23593656929628e-002	(7.99998983874392e+001dB,1.79999999933862e+002°)
3.31131121482591e-002	(7.99998983874392e+001dB,1.79999999932322e+002°)
3.38844156139202e-002	(7.99998983874392e+001dB,1.79999999930745e+002°)
3.46736850452531e-002	(7.99998983874392e+001dB,1.79999999929132e+002°)
3.54813389233575e-002	(7.99998983874392e+001dB,1.79999999927481e+002°)
3.63078054770101e-002	(7.99998983874392e+001dB,1.79999999925792e+002°)
3.71535229097172e-002	(7.99998983874392e+001dB,1.79999999924064e+002°)
3.80189396320561e-002	(7.99998983874392e+001dB,1.79999999922295e+002°)
3.89045144994280e-002	(7.99998983874392e+001dB,1.79999999920485e+002°)
3.98107170553497e-002	(7.99998983874392e+001dB,1.79999999918633e+002°)
4.07380277804112e-002	(7.99998983874392e+001dB,1.79999999916738e+002°)
4.16869383470335e-002	(7.99998983874392e+001dB,1.79999999914798e+002°)
4.26579518801592e-002	(7.99998983874392e+001dB,1.79999999912814e+002°)
4.36515832240165e-002	(7.99998983874392e+001dB,1.79999999910783e+002°)
4.46683592150962e-002	(7.99998983874392e+001dB,1.79999999908705e+002°)
4.57088189614874e-002	(7.99998983874392e+001dB,1.79999999906578e+002°)
4.67735141287197e-002	(7.99998983874392e+001dB,1.79999999904402e+002°)
4.78630092322637e-002	(7.99998983874392e+001dB,1.79999999902175e+002°)
4.89778819368445e-002	(7.99998983874392e+001dB,1.79999999899897e+002°)
5.01187233627271e-002	(7.99998983874392e+001dB,1.79999999897565e+002°)
5.12861383991364e-002	(7.99998983874392e+001dB,1.79999999895179e+002°)
5.24807460249771e-002	(7.99998983874392e+001dB,1.79999999892737e+002°)
5.37031796370252e-002	(7.99998983874392e+001dB,1.79999999890239e+002°)
5.49540873857623e-002	(7.99998983874392e+001dB,1.79999999887682e+002°)
5.62341325190348e-002	(7.99998983874392e+001dB,1.79999999885066e+002°)
5.75439937337156e-002	(7.99998983874392e+001dB,1.79999999882389e+002°)
5.88843655355588e-002	(7.99998983874392e+001dB,1.79999999879649e+002°)
6.02559586074356e-002	(7.99998983874392e+001dB,1.79999999876846e+002°)
6.16595001861481e-002	(7.99998983874392e+001dB,1.79999999873977e+002°)
6.30957344480192e-002	(7.99998983874392e+001dB,1.79999999871042e+002°)
6.45654229034654e-002	(7.99998983874392e+001dB,1.79999999868038e+002°)
6.60693448007594e-002	(7.99998983874392e+001dB,1.79999999864964e+002°)
6.76082975391980e-002	(7.99998983874392e+001dB,1.79999999861819e+002°)
6.91830970918935e-002	(7.99998983874392e+001dB,1.79999999858600e+002°)
7.07945784384136e-002	(7.99998983874392e+001dB,1.79999999855306e+002°)
7.24435960074988e-002	(7.99998983874392e+001dB,1.79999999851936e+002°)
7.41310241300916e-002	(7.99998983874392e+001dB,1.79999999848487e+002°)
7.58577575029182e-002	(7.99998983874392e+001dB,1.79999999844958e+002°)
7.76247116628690e-002	(7.99998983874392e+001dB,1.79999999841347e+002°)
7.94328234724279e-002	(7.99998983874392e+001dB,1.79999999837651e+002°)
8.12830516164097e-002	(7.99998983874392e+001dB,1.79999999833870e+002°)
8.31763771102669e-002	(7.99998983874392e+001dB,1.79999999830000e+002°)
8.51138038202374e-002	(7.99998983874392e+001dB,1.79999999826040e+002°)
8.70963589956078e-002	(7.99998983874392e+001dB,1.79999999821988e+002°)
8.91250938133743e-002	(7.99998983874392e+001dB,1.79999999817842e+002°)
9.12010839355907e-002	(7.99998983874392e+001dB,1.79999999813599e+002°)
9.33254300796988e-002	(7.99998983874392e+001dB,1.79999999809257e+002°)
9.54992586021433e-002	(7.99998983874392e+001dB,1.79999999804814e+002°)
9.77237220955808e-002	(7.99998983874392e+001dB,1.79999999800267e+002°)
9.99999999999997e-002	(7.99998983874392e+001dB,1.79999999795615e+002°)
1.02329299228075e-001	(7.99998983874392e+001dB,1.79999999790854e+002°)
1.04712854805090e-001	(7.99998983874392e+001dB,1.79999999785983e+002°)
1.07151930523760e-001	(7.99998983874392e+001dB,1.79999999780997e+002°)
1.09647819614318e-001	(7.99998983874392e+001dB,1.79999999775896e+002°)
1.12201845430196e-001	(7.99998983874392e+001dB,1.79999999770676e+002°)
1.14815362149688e-001	(7.99998983874392e+001dB,1.79999999765335e+002°)
1.17489755493953e-001	(7.99998983874392e+001dB,1.79999999759868e+002°)
1.20226443461741e-001	(7.99998983874392e+001dB,1.79999999754275e+002°)
1.23026877081238e-001	(7.99998983874392e+001dB,1.79999999748551e+002°)
1.25892541179416e-001	(7.99998983874392e+001dB,1.79999999742694e+002°)
1.28824955169313e-001	(7.99998983874392e+001dB,1.79999999736701e+002°)
1.31825673855640e-001	(7.99998983874392e+001dB,1.79999999730568e+002°)
1.34896288259165e-001	(7.99998983874392e+001dB,1.79999999724292e+002°)
1.38038426460288e-001	(7.99998983874392e+001dB,1.79999999717870e+002°)
1.41253754462275e-001	(7.99998983874392e+001dB,1.79999999711298e+002°)
1.44543977074592e-001	(7.99998983874392e+001dB,1.79999999704574e+002°)
1.47910838816820e-001	(7.99998983874392e+001dB,1.79999999697692e+002°)
1.51356124843620e-001	(7.99998983874392e+001dB,1.79999999690651e+002°)
1.54881661891248e-001	(7.99998983874392e+001dB,1.79999999683445e+002°)
1.58489319246111e-001	(7.99998983874392e+001dB,1.79999999676071e+002°)
1.62181009735892e-001	(7.99998983874392e+001dB,1.79999999668526e+002°)
1.65958690743755e-001	(7.99998983874392e+001dB,1.79999999660805e+002°)
1.69824365246174e-001	(7.99998983874392e+001dB,1.79999999652904e+002°)
1.73780082874937e-001	(7.99998983874392e+001dB,1.79999999644819e+002°)
1.77827941003892e-001	(7.99998983874392e+001dB,1.79999999636546e+002°)
1.81970085860998e-001	(7.99998983874392e+001dB,1.79999999628080e+002°)
1.86208713666286e-001	(7.99998983874392e+001dB,1.79999999619417e+002°)
1.90546071796324e-001	(7.99998983874392e+001dB,1.79999999610552e+002°)
1.94984459975804e-001	(7.99998983874392e+001dB,1.79999999601481e+002°)
1.99526231496887e-001	(7.99998983874392e+001dB,1.79999999592198e+002°)
2.04173794466952e-001	(7.99998983874392e+001dB,1.79999999582699e+002°)
2.08929613085403e-001	(7.99998983874392e+001dB,1.79999999572979e+002°)
2.13796208950222e-001	(7.99998983874392e+001dB,1.79999999563032e+002°)
2.18776162394954e-001	(7.99998983874392e+001dB,1.79999999552854e+002°)
2.23872113856833e-001	(7.99998983874392e+001dB,1.79999999542439e+002°)
2.29086765276776e-001	(7.99998983874392e+001dB,1.79999999531781e+002°)
2.34422881531991e-001	(7.99998983874392e+001dB,1.79999999520875e+002°)
2.39883291901948e-001	(7.99998983874392e+001dB,1.79999999509714e+002°)
2.45470891568502e-001	(7.99998983874392e+001dB,1.79999999498294e+002°)
2.51188643150957e-001	(7.99998983874392e+001dB,1.79999999486608e+002°)
2.57039578276885e-001	(7.99998983874392e+001dB,1.79999999474649e+002°)
2.63026799189537e-001	(7.99998983874392e+001dB,1.79999999462412e+002°)
2.69153480392690e-001	(7.99998983874392e+001dB,1.79999999449890e+002°)
2.75422870333815e-001	(7.99998983874392e+001dB,1.79999999437077e+002°)
2.81838293126444e-001	(7.99998983874392e+001dB,1.79999999423965e+002°)
2.88403150312659e-001	(7.99998983874392e+001dB,1.79999999410547e+002°)
2.95120922666637e-001	(7.99998983874392e+001dB,1.79999999396817e+002°)
3.01995172040200e-001	(7.99998983874392e+001dB,1.79999999382767e+002°)
3.09029543251358e-001	(7.99998983874392e+001dB,1.79999999368390e+002°)
3.16227766016837e-001	(7.99998983874392e+001dB,1.79999999353678e+002°)
3.23593656929627e-001	(7.99998983874392e+001dB,1.79999999338623e+002°)
3.31131121482590e-001	(7.99998983874392e+001dB,1.79999999323217e+002°)
3.38844156139201e-001	(7.99998983874392e+001dB,1.79999999307453e+002°)
3.46736850452530e-001	(7.99998983874392e+001dB,1.79999999291322e+002°)
3.54813389233574e-001	(7.99998983874392e+001dB,1.79999999274814e+002°)
3.63078054770100e-001	(7.99998983874392e+001dB,1.79999999257923e+002°)
3.71535229097171e-001	(7.99998983874392e+001dB,1.79999999240637e+002°)
3.80189396320559e-001	(7.99998983874392e+001dB,1.79999999222950e+002°)
3.89045144994279e-001	(7.99998983874392e+001dB,1.79999999204850e+002°)
3.98107170553495e-001	(7.99998983874392e+001dB,1.79999999186328e+002°)
4.07380277804111e-001	(7.99998983874392e+001dB,1.79999999167375e+002°)
4.16869383470333e-001	(7.99998983874392e+001dB,1.79999999147981e+002°)
4.26579518801591e-001	(7.99998983874392e+001dB,1.79999999128135e+002°)
4.36515832240164e-001	(7.99998983874392e+001dB,1.79999999107827e+002°)
4.46683592150961e-001	(7.99998983874392e+001dB,1.79999999087045e+002°)
4.57088189614873e-001	(7.99998983874392e+001dB,1.79999999065780e+002°)
4.67735141287196e-001	(7.99998983874392e+001dB,1.79999999044019e+002°)
4.78630092322636e-001	(7.99998983874392e+001dB,1.79999999021752e+002°)
4.89778819368444e-001	(7.99998983874392e+001dB,1.79999998998965e+002°)
5.01187233627270e-001	(7.99998983874392e+001dB,1.79999998975648e+002°)
5.12861383991362e-001	(7.99998983874392e+001dB,1.79999998951788e+002°)
5.24807460249770e-001	(7.99998983874392e+001dB,1.79999998927372e+002°)
5.37031796370250e-001	(7.99998983874392e+001dB,1.79999998902387e+002°)
5.49540873857622e-001	(7.99998983874392e+001dB,1.79999998876820e+002°)
5.62341325190346e-001	(7.99998983874392e+001dB,1.79999998850658e+002°)
5.75439937337154e-001	(7.99998983874392e+001dB,1.79999998823887e+002°)
5.88843655355586e-001	(7.99998983874392e+001dB,1.79999998796491e+002°)
6.02559586074355e-001	(7.99998983874392e+001dB,1.79999998768458e+002°)
6.16595001861479e-001	(7.99998983874392e+001dB,1.79999998739772e+002°)
6.30957344480190e-001	(7.99998983874392e+001dB,1.79999998710417e+002°)
6.45654229034652e-001	(7.99998983874392e+001dB,1.79999998680379e+002°)
6.60693448007592e-001	(7.99998983874392e+001dB,1.79999998649641e+002°)
6.76082975391978e-001	(7.99998983874392e+001dB,1.79999998618187e+002°)
6.91830970918933e-001	(7.99998983874392e+001dB,1.79999998586001e+002°)
7.07945784384134e-001	(7.99998983874392e+001dB,1.79999998553064e+002°)
7.24435960074986e-001	(7.99998983874392e+001dB,1.79999998519361e+002°)
7.41310241300913e-001	(7.99998983874392e+001dB,1.79999998484872e+002°)
7.58577575029179e-001	(7.99998983874392e+001dB,1.79999998449581e+002°)
7.76247116628687e-001	(7.99998983874392e+001dB,1.79999998413467e+002°)
7.94328234724277e-001	(7.99998983874392e+001dB,1.79999998376512e+002°)
8.12830516164095e-001	(7.99998983874392e+001dB,1.79999998338696e+002°)
8.31763771102666e-001	(7.99998983874392e+001dB,1.79999998299999e+002°)
8.51138038202372e-001	(7.99998983874392e+001dB,1.79999998260401e+002°)
8.70963589956076e-001	(7.99998983874392e+001dB,1.79999998219880e+002°)
8.91250938133740e-001	(7.99998983874392e+001dB,1.79999998178416e+002°)
9.12010839355904e-001	(7.99998983874392e+001dB,1.79999998135986e+002°)
9.33254300796986e-001	(7.99998983874392e+001dB,1.79999998092567e+002°)
9.54992586021430e-001	(7.99998983874392e+001dB,1.79999998048138e+002°)
9.77237220955805e-001	(7.99998983874392e+001dB,1.79999998002673e+002°)
9.99999999999994e-001	(7.99998983874392e+001dB,1.79999997956149e+002°)
1.02329299228075e+000	(7.99998983874392e+001dB,1.79999997908542e+002°)
1.04712854805089e+000	(7.99998983874392e+001dB,1.79999997859826e+002°)
1.07151930523760e+000	(7.99998983874392e+001dB,1.79999997809974e+002°)
1.09647819614318e+000	(7.99998983874392e+001dB,1.79999997758962e+002°)
1.12201845430196e+000	(7.99998983874392e+001dB,1.79999997706762e+002°)
1.14815362149688e+000	(7.99998983874392e+001dB,1.79999997653345e+002°)
1.17489755493952e+000	(7.99998983874392e+001dB,1.79999997598685e+002°)
1.20226443461741e+000	(7.99998983874392e+001dB,1.79999997542751e+002°)
1.23026877081237e+000	(7.99998983874392e+001dB,1.79999997485514e+002°)
1.25892541179416e+000	(7.99998983874392e+001dB,1.79999997426944e+002°)
1.28824955169313e+000	(7.99998983874392e+001dB,1.79999997367010e+002°)
1.31825673855640e+000	(7.99998983874392e+001dB,1.79999997305680e+002°)
1.34896288259165e+000	(7.99998983874392e+001dB,1.79999997242921e+002°)
1.38038426460288e+000	(7.99998983874392e+001dB,1.79999997178701e+002°)
1.41253754462275e+000	(7.99998983874392e+001dB,1.79999997112984e+002°)
1.44543977074592e+000	(7.99998983874392e+001dB,1.79999997045737e+002°)
1.47910838816820e+000	(7.99998983874392e+001dB,1.79999996976923e+002°)
1.51356124843620e+000	(7.99998983874393e+001dB,1.79999996906507e+002°)
1.54881661891247e+000	(7.99998983874393e+001dB,1.79999996834450e+002°)
1.58489319246110e+000	(7.99998983874393e+001dB,1.79999996760715e+002°)
1.62181009735892e+000	(7.99998983874393e+001dB,1.79999996685262e+002°)
1.65958690743755e+000	(7.99998983874393e+001dB,1.79999996608052e+002°)
1.69824365246173e+000	(7.99998983874393e+001dB,1.79999996529043e+002°)
1.73780082874936e+000	(7.99998983874393e+001dB,1.79999996448194e+002°)
1.77827941003891e+000	(7.99998983874393e+001dB,1.79999996365462e+002°)
1.81970085860997e+000	(7.99998983874393e+001dB,1.79999996280803e+002°)
1.86208713666286e+000	(7.99998983874393e+001dB,1.79999996194172e+002°)
1.90546071796323e+000	(7.99998983874393e+001dB,1.79999996105523e+002°)
1.94984459975803e+000	(7.99998983874393e+001dB,1.79999996014809e+002°)
1.99526231496887e+000	(7.99998983874393e+001dB,1.79999995921982e+002°)
2.04173794466952e+000	(7.99998983874393e+001dB,1.79999995826992e+002°)
2.08929613085403e+000	(7.99998983874393e+001dB,1.79999995729790e+002°)
2.13796208950222e+000	(7.99998983874393e+001dB,1.79999995630324e+002°)
2.18776162394954e+000	(7.99998983874393e+001dB,1.79999995528542e+002°)
2.23872113856832e+000	(7.99998983874393e+001dB,1.79999995424388e+002°)
2.29086765276776e+000	(7.99998983874393e+001dB,1.79999995317808e+002°)
2.34422881531990e+000	(7.99998983874393e+001dB,1.79999995208746e+002°)
2.39883291901947e+000	(7.99998983874393e+001dB,1.79999995097143e+002°)
2.45470891568501e+000	(7.99998983874393e+001dB,1.79999994982941e+002°)
2.51188643150956e+000	(7.99998983874393e+001dB,1.79999994866079e+002°)
2.57039578276884e+000	(7.99998983874394e+001dB,1.79999994746495e+002°)
2.63026799189536e+000	(7.99998983874394e+001dB,1.79999994624125e+002°)
2.69153480392690e+000	(7.99998983874394e+001dB,1.79999994498904e+002°)
2.75422870333815e+000	(7.99998983874394e+001dB,1.79999994370767e+002°)
2.81838293126443e+000	(7.99998983874394e+001dB,1.79999994239646e+002°)
2.88403150312658e+000	(7.99998983874394e+001dB,1.79999994105470e+002°)
2.95120922666636e+000	(7.99998983874394e+001dB,1.79999993968169e+002°)
3.01995172040199e+000	(7.99998983874394e+001dB,1.79999993827669e+002°)
3.09029543251357e+000	(7.99998983874394e+001dB,1.79999993683897e+002°)
3.16227766016835e+000	(7.99998983874394e+001dB,1.79999993536776e+002°)
3.23593656929626e+000	(7.99998983874394e+001dB,1.79999993386228e+002°)
3.31131121482589e+000	(7.99998983874395e+001dB,1.79999993232174e+002°)
3.38844156139200e+000	(7.99998983874395e+001dB,1.79999993074531e+002°)
3.46736850452529e+000	(7.99998983874395e+001dB,1.79999992913216e+002°)
3.54813389233573e+000	(7.99998983874395e+001dB,1.79999992748144e+002°)
3.63078054770098e+000	(7.99998983874395e+001dB,1.79999992579226e+002°)
3.71535229097170e+000	(7.99998983874395e+001dB,1.79999992406374e+002°)
3.80189396320558e+000	(7.99998983874395e+001dB,1.79999992229496e+002°)
3.89045144994278e+000	(7.99998983874396e+001dB,1.79999992048498e+002°)
3.98107170553494e+000	(7.99998983874396e+001dB,1.79999991863283e+002°)
4.07380277804109e+000	(7.99998983874396e+001dB,1.79999991673755e+002°)
4.16869383470332e+000	(7.99998983874396e+001dB,1.79999991479812e+002°)
4.26579518801589e+000	(7.99998983874396e+001dB,1.79999991281351e+002°)
4.36515832240162e+000	(7.99998983874397e+001dB,1.79999991078268e+002°)
4.46683592150959e+000	(7.99998983874397e+001dB,1.79999990870454e+002°)
4.57088189614871e+000	(7.99998983874397e+001dB,1.79999990657799e+002°)
4.67735141287194e+000	(7.99998983874397e+001dB,1.79999990440192e+002°)
4.78630092322634e+000	(7.99998983874397e+001dB,1.79999990217515e+002°)
4.89778819368442e+000	(7.99998983874398e+001dB,1.79999989989652e+002°)
5.01187233627268e+000	(7.99998983874398e+001dB,1.79999989756481e+002°)
5.12861383991361e+000	(7.99998983874398e+001dB,1.79999989517879e+002°)
5.24807460249768e+000	(7.99998983874399e+001dB,1.79999989273719e+002°)
5.37031796370248e+000	(7.99998983874399e+001dB,1.79999989023871e+002°)
5.49540873857620e+000	(7.99998983874399e+001dB,1.79999988768204e+002°)
5.62341325190344e+000	(7.99998983874400e+001dB,1.79999988506582e+002°)
5.75439937337152e+000	(7.99998983874400e+001dB,1.79999988238866e+002°)
