Freq.	V(vout)
1.00000000000000e-002	(7.48936080224489e+001dB,1.79999992011107e+002°)
1.02329299228075e-002	(7.48936080224485e+001dB,1.79999991825022e+002°)
1.04712854805090e-002	(7.48936080224481e+001dB,1.79999991634602e+002°)
1.07151930523761e-002	(7.48936080224477e+001dB,1.79999991439747e+002°)
1.09647819614318e-002	(7.48936080224473e+001dB,1.79999991240353e+002°)
1.12201845430196e-002	(7.48936080224469e+001dB,1.79999991036314e+002°)
1.14815362149688e-002	(7.48936080224464e+001dB,1.79999990827523e+002°)
1.17489755493953e-002	(7.48936080224425e+001dB,1.79999990613869e+002°)
1.20226443461741e-002	(7.48936080224420e+001dB,1.79999990395238e+002°)
1.23026877081238e-002	(7.48936080224414e+001dB,1.79999990171514e+002°)
1.25892541179417e-002	(7.48936080224409e+001dB,1.79999989942579e+002°)
1.28824955169313e-002	(7.48936080224403e+001dB,1.79999989708312e+002°)
1.31825673855641e-002	(7.48936080224397e+001dB,1.79999989468588e+002°)
1.34896288259165e-002	(7.48936080224391e+001dB,1.79999989223280e+002°)
1.38038426460288e-002	(7.48936080224384e+001dB,1.79999988972258e+002°)
1.41253754462275e-002	(7.48936080224377e+001dB,1.79999988715388e+002°)
1.44543977074593e-002	(7.48936080224370e+001dB,1.79999988452536e+002°)
1.47910838816821e-002	(7.48936080224362e+001dB,1.79999988183561e+002°)
1.51356124843621e-002	(7.48936080224354e+001dB,1.79999987908321e+002°)
1.54881661891248e-002	(7.48936080224346e+001dB,1.79999987626669e+002°)
1.58489319246111e-002	(7.48936080224337e+001dB,1.79999987338458e+002°)
1.62181009735893e-002	(7.48936080224328e+001dB,1.79999987043532e+002°)
1.65958690743756e-002	(7.48936080224319e+001dB,1.79999986741737e+002°)
1.69824365246174e-002	(7.48936080224309e+001dB,1.79999986432913e+002°)
1.73780082874937e-002	(7.48936080224298e+001dB,1.79999986116895e+002°)
1.77827941003892e-002	(7.48936080224287e+001dB,1.79999985793516e+002°)
1.81970085860998e-002	(7.48936080224276e+001dB,1.79999985462604e+002°)
1.86208713666287e-002	(7.48936080224264e+001dB,1.79999985123985e+002°)
1.90546071796325e-002	(7.48936080224251e+001dB,1.79999984777478e+002°)
1.94984459975804e-002	(7.48936080224238e+001dB,1.79999984422900e+002°)
1.99526231496888e-002	(7.48936080224189e+001dB,1.79999984060062e+002°)
2.04173794466953e-002	(7.48936080224175e+001dB,1.79999983688774e+002°)
2.08929613085404e-002	(7.48936080224160e+001dB,1.79999983308836e+002°)
2.13796208950223e-002	(7.48936080224144e+001dB,1.79999982920049e+002°)
2.18776162394955e-002	(7.48936080224127e+001dB,1.79999982522206e+002°)
2.23872113856834e-002	(7.48936080224110e+001dB,1.79999982115096e+002°)
2.29086765276777e-002	(7.48936080224092e+001dB,1.79999981698503e+002°)
2.34422881531992e-002	(7.48936080224073e+001dB,1.79999981272206e+002°)
2.39883291901949e-002	(7.48936080224053e+001dB,1.79999980835980e+002°)
2.45470891568503e-002	(7.48936080224032e+001dB,1.79999980389593e+002°)
2.51188643150958e-002	(7.48936080224010e+001dB,1.79999979932808e+002°)
2.57039578276886e-002	(7.48936080223952e+001dB,1.79999979465383e+002°)
2.63026799189538e-002	(7.48936080223928e+001dB,1.79999978987070e+002°)
2.69153480392691e-002	(7.48936080223903e+001dB,1.79999978497616e+002°)
2.75422870333816e-002	(7.48936080223877e+001dB,1.79999977996761e+002°)
2.81838293126445e-002	(7.48936080223849e+001dB,1.79999977484240e+002°)
2.88403150312660e-002	(7.48936080223821e+001dB,1.79999976959780e+002°)
2.95120922666638e-002	(7.48936080223790e+001dB,1.79999976423105e+002°)
3.01995172040201e-002	(7.48936080223759e+001dB,1.79999975873928e+002°)
3.09029543251359e-002	(7.48936080223691e+001dB,1.79999975311960e+002°)
3.16227766016838e-002	(7.48936080223656e+001dB,1.79999974736901e+002°)
3.23593656929628e-002	(7.48936080223620e+001dB,1.79999974148448e+002°)
3.31131121482591e-002	(7.48936080223582e+001dB,1.79999973546288e+002°)
3.38844156139202e-002	(7.48936080223542e+001dB,1.79999972930102e+002°)
3.46736850452531e-002	(7.48936080223465e+001dB,1.79999972299563e+002°)
3.54813389233575e-002	(7.48936080223422e+001dB,1.79999971654337e+002°)
3.63078054770101e-002	(7.48936080223376e+001dB,1.79999970994082e+002°)
3.71535229097172e-002	(7.48936080223328e+001dB,1.79999970318447e+002°)
3.80189396320561e-002	(7.48936080223278e+001dB,1.79999969627075e+002°)
3.89045144994280e-002	(7.48936080223191e+001dB,1.79999968919599e+002°)
3.98107170553497e-002	(7.48936080223136e+001dB,1.79999968195643e+002°)
4.07380277804112e-002	(7.48936080223078e+001dB,1.79999967454825e+002°)
4.16869383470335e-002	(7.48936080222983e+001dB,1.79999966696750e+002°)
4.26579518801592e-002	(7.48936080222920e+001dB,1.79999965921018e+002°)
4.36515832240165e-002	(7.48936080222854e+001dB,1.79999965127216e+002°)
4.46683592150962e-002	(7.48936080222750e+001dB,1.79999964314925e+002°)
4.57088189614874e-002	(7.48936080222678e+001dB,1.79999963483713e+002°)
4.67735141287197e-002	(7.48936080222602e+001dB,1.79999962633139e+002°)
4.78630092322637e-002	(7.48936080222488e+001dB,1.79999961762753e+002°)
4.89778819368445e-002	(7.48936080222404e+001dB,1.79999960872093e+002°)
5.01187233627271e-002	(7.48936080222282e+001dB,1.79999959960687e+002°)
5.12861383991364e-002	(7.48936080222191e+001dB,1.79999959028052e+002°)
5.24807460249771e-002	(7.48936080222096e+001dB,1.79999958073692e+002°)
5.37031796370252e-002	(7.48936080221926e+001dB,1.79999957097103e+002°)
5.49540873857623e-002	(7.48936080221821e+001dB,1.79999956097767e+002°)
5.62341325190348e-002	(7.48936080221677e+001dB,1.79999955075152e+002°)
5.75439937337156e-002	(7.48936080221527e+001dB,1.79999954028718e+002°)
5.88843655355588e-002	(7.48936080221407e+001dB,1.79999952957909e+002°)
6.02559586074356e-002	(7.48936080221246e+001dB,1.79999951862158e+002°)
6.16595001861481e-002	(7.48936080221114e+001dB,1.79999950740884e+002°)
6.30957344480192e-002	(7.48936080220942e+001dB,1.79999949593492e+002°)
6.45654229034654e-002	(7.48936080220762e+001dB,1.79999948419373e+002°)
6.60693448007594e-002	(7.48936080220576e+001dB,1.79999947217906e+002°)
6.76082975391980e-002	(7.48936080220418e+001dB,1.79999945988453e+002°)
6.91830970918935e-002	(7.48936080220217e+001dB,1.79999944730363e+002°)
7.07945784384136e-002	(7.48936080220008e+001dB,1.79999943442967e+002°)
7.24435960074988e-002	(7.48936080219757e+001dB,1.79999942125585e+002°)
7.41310241300916e-002	(7.48936080219531e+001dB,1.79999940777517e+002°)
7.58577575029182e-002	(7.48936080219297e+001dB,1.79999939398048e+002°)
7.76247116628690e-002	(7.48936080219053e+001dB,1.79999937986447e+002°)
7.94328234724279e-002	(7.48936080218799e+001dB,1.79999936541966e+002°)
8.12830516164097e-002	(7.48936080218536e+001dB,1.79999935063838e+002°)
8.31763771102669e-002	(7.48936080218261e+001dB,1.79999933551281e+002°)
8.51138038202374e-002	(7.48936080217975e+001dB,1.79999932003491e+002°)
8.70963589956078e-002	(7.48936080217642e+001dB,1.79999930419649e+002°)
8.91250938133743e-002	(7.48936080217332e+001dB,1.79999928798915e+002°)
9.12010839355907e-002	(7.48936080217009e+001dB,1.79999927140428e+002°)
9.33254300796988e-002	(7.48936080216637e+001dB,1.79999925443311e+002°)
9.54992586021433e-002	(7.48936080216251e+001dB,1.79999923706663e+002°)
9.77237220955808e-002	(7.48936080215885e+001dB,1.79999921929562e+002°)
9.99999999999997e-002	(7.48936080215469e+001dB,1.79999920111068e+002°)
1.02329299228075e-001	(7.48936080215001e+001dB,1.79999918250216e+002°)
1.04712854805090e-001	(7.48936080214551e+001dB,1.79999916346019e+002°)
1.07151930523760e-001	(7.48936080214119e+001dB,1.79999914397468e+002°)
1.09647819614318e-001	(7.48936080213597e+001dB,1.79999912403528e+002°)
1.12201845430196e-001	(7.48936080213091e+001dB,1.79999910363145e+002°)
1.14815362149688e-001	(7.48936080212564e+001dB,1.79999908275234e+002°)
1.17489755493953e-001	(7.48936080212016e+001dB,1.79999906138690e+002°)
1.20226443461741e-001	(7.48936080211410e+001dB,1.79999903952379e+002°)
1.23026877081238e-001	(7.48936080210816e+001dB,1.79999901715143e+002°)
1.25892541179416e-001	(7.48936080210127e+001dB,1.79999899425794e+002°)
1.28824955169313e-001	(7.48936080209447e+001dB,1.79999897083120e+002°)
1.31825673855640e-001	(7.48936080208740e+001dB,1.79999894685878e+002°)
1.34896288259165e-001	(7.48936080207970e+001dB,1.79999892232797e+002°)
1.38038426460288e-001	(7.48936080207205e+001dB,1.79999889722576e+002°)
1.41253754462275e-001	(7.48936080206373e+001dB,1.79999887153885e+002°)
1.44543977074592e-001	(7.48936080205545e+001dB,1.79999884525362e+002°)
1.47910838816820e-001	(7.48936080204647e+001dB,1.79999881835612e+002°)
1.51356124843620e-001	(7.48936080203713e+001dB,1.79999879083210e+002°)
1.54881661891248e-001	(7.48936080202742e+001dB,1.79999876266696e+002°)
1.58489319246111e-001	(7.48936080201697e+001dB,1.79999873384577e+002°)
1.62181009735892e-001	(7.48936080200576e+001dB,1.79999870435325e+002°)
1.65958690743755e-001	(7.48936080199482e+001dB,1.79999867417376e+002°)
1.69824365246174e-001	(7.48936080198308e+001dB,1.79999864329130e+002°)
1.73780082874937e-001	(7.48936080197086e+001dB,1.79999861168950e+002°)
1.77827941003892e-001	(7.48936080195781e+001dB,1.79999857935160e+002°)
1.81970085860998e-001	(7.48936080194424e+001dB,1.79999854626044e+002°)
1.86208713666286e-001	(7.48936080193013e+001dB,1.79999851239850e+002°)
1.90546071796324e-001	(7.48936080191545e+001dB,1.79999847774781e+002°)
1.94984459975804e-001	(7.48936080189948e+001dB,1.79999844229001e+002°)
1.99526231496887e-001	(7.48936080188289e+001dB,1.79999840600628e+002°)
2.04173794466952e-001	(7.48936080186600e+001dB,1.79999836887740e+002°)
2.08929613085403e-001	(7.48936080184842e+001dB,1.79999833088367e+002°)
2.13796208950222e-001	(7.48936080182979e+001dB,1.79999829200496e+002°)
2.18776162394954e-001	(7.48936080180971e+001dB,1.79999825222065e+002°)
2.23872113856833e-001	(7.48936080178920e+001dB,1.79999821150964e+002°)
2.29086765276776e-001	(7.48936080176786e+001dB,1.79999816985035e+002°)
2.34422881531991e-001	(7.48936080174533e+001dB,1.79999812722069e+002°)
2.39883291901948e-001	(7.48936080172154e+001dB,1.79999808359806e+002°)
2.45470891568502e-001	(7.48936080169717e+001dB,1.79999803895933e+002°)
2.51188643150957e-001	(7.48936080167111e+001dB,1.79999799328083e+002°)
2.57039578276885e-001	(7.48936080164437e+001dB,1.79999794653834e+002°)
2.63026799189537e-001	(7.48936080161551e+001dB,1.79999789870707e+002°)
2.69153480392690e-001	(7.48936080158621e+001dB,1.79999784976168e+002°)
2.75422870333815e-001	(7.48936080155538e+001dB,1.79999779967620e+002°)
2.81838293126444e-001	(7.48936080152227e+001dB,1.79999774842408e+002°)
2.88403150312659e-001	(7.48936080148855e+001dB,1.79999769597814e+002°)
2.95120922666637e-001	(7.48936080145278e+001dB,1.79999764231058e+002°)
3.01995172040200e-001	(7.48936080141524e+001dB,1.79999758739295e+002°)
3.09029543251358e-001	(7.48936080137620e+001dB,1.79999753119612e+002°)
3.16227766016837e-001	(7.48936080133491e+001dB,1.79999747369029e+002°)
3.23593656929627e-001	(7.48936080129234e+001dB,1.79999741484499e+002°)
3.31131121482590e-001	(7.48936080124735e+001dB,1.79999735462900e+002°)
3.38844156139201e-001	(7.48936080120023e+001dB,1.79999729301040e+002°)
3.46736850452530e-001	(7.48936080115088e+001dB,1.79999722995652e+002°)
3.54813389233574e-001	(7.48936080109957e+001dB,1.79999716543393e+002°)
3.63078054770100e-001	(7.48936080104550e+001dB,1.79999709940841e+002°)
3.71535229097171e-001	(7.48936080098893e+001dB,1.79999703184497e+002°)
3.80189396320559e-001	(7.48936080092906e+001dB,1.79999696270776e+002°)
3.89045144994279e-001	(7.48936080086718e+001dB,1.79999689196015e+002°)
3.98107170553495e-001	(7.48936080080247e+001dB,1.79999681956462e+002°)
4.07380277804111e-001	(7.48936080073448e+001dB,1.79999674548277e+002°)
4.16869383470333e-001	(7.48936080066308e+001dB,1.79999666967534e+002°)
4.26579518801591e-001	(7.48936080058884e+001dB,1.79999659210213e+002°)
4.36515832240164e-001	(7.48936080051058e+001dB,1.79999651272201e+002°)
4.46683592150961e-001	(7.48936080042851e+001dB,1.79999643149289e+002°)
4.57088189614873e-001	(7.48936080034319e+001dB,1.79999634837170e+002°)
4.67735141287196e-001	(7.48936080025375e+001dB,1.79999626331437e+002°)
4.78630092322636e-001	(7.48936080016003e+001dB,1.79999617627581e+002°)
4.89778819368444e-001	(7.48936080006154e+001dB,1.79999608720985e+002°)
5.01187233627270e-001	(7.48936079995877e+001dB,1.79999599606929e+002°)
5.12861383991362e-001	(7.48936079985085e+001dB,1.79999590280579e+002°)
5.24807460249770e-001	(7.48936079973794e+001dB,1.79999580736991e+002°)
5.37031796370250e-001	(7.48936079961983e+001dB,1.79999570971104e+002°)
5.49540873857622e-001	(7.48936079949596e+001dB,1.79999560977740e+002°)
5.62341325190346e-001	(7.48936079936681e+001dB,1.79999550751602e+002°)
5.75439937337154e-001	(7.48936079923076e+001dB,1.79999540287266e+002°)
5.88843655355586e-001	(7.48936079908894e+001dB,1.79999529579185e+002°)
6.02559586074355e-001	(7.48936079893971e+001dB,1.79999518621682e+002°)
6.16595001861479e-001	(7.48936079878386e+001dB,1.79999507408945e+002°)
6.30957344480190e-001	(7.48936079862109e+001dB,1.79999495935030e+002°)
6.45654229034652e-001	(7.48936079844973e+001dB,1.79999484193855e+002°)
6.60693448007592e-001	(7.48936079827086e+001dB,1.79999472179192e+002°)
6.76082975391978e-001	(7.48936079808382e+001dB,1.79999459884672e+002°)
6.91830970918933e-001	(7.48936079788791e+001dB,1.79999447303777e+002°)
7.07945784384134e-001	(7.48936079768244e+001dB,1.79999434429835e+002°)
7.24435960074986e-001	(7.48936079746739e+001dB,1.79999421256022e+002°)
7.41310241300913e-001	(7.48936079724201e+001dB,1.79999407775351e+002°)
7.58577575029179e-001	(7.48936079700627e+001dB,1.79999393980676e+002°)
7.76247116628687e-001	(7.48936079675938e+001dB,1.79999379864682e+002°)
7.94328234724277e-001	(7.48936079650090e+001dB,1.79999365419885e+002°)
8.12830516164095e-001	(7.48936079623003e+001dB,1.79999350638627e+002°)
8.31763771102666e-001	(7.48936079594696e+001dB,1.79999335513069e+002°)
8.51138038202372e-001	(7.48936079564945e+001dB,1.79999320035193e+002°)
8.70963589956076e-001	(7.48936079533837e+001dB,1.79999304196791e+002°)
8.91250938133740e-001	(7.48936079501350e+001dB,1.79999287989467e+002°)
9.12010839355904e-001	(7.48936079467216e+001dB,1.79999271404627e+002°)
9.33254300796986e-001	(7.48936079431549e+001dB,1.79999254433477e+002°)
9.54992586021430e-001	(7.48936079394180e+001dB,1.79999237067020e+002°)
9.77237220955805e-001	(7.48936079355077e+001dB,1.79999219296047e+002°)
9.99999999999994e-001	(7.48936079314065e+001dB,1.79999201111137e+002°)
1.02329299228075e+000	(7.48936079271140e+001dB,1.79999182502647e+002°)
1.04712854805089e+000	(7.48936079226226e+001dB,1.79999163460711e+002°)
1.07151930523760e+000	(7.48936079179172e+001dB,1.79999143975233e+002°)
1.09647819614318e+000	(7.48936079129928e+001dB,1.79999124035882e+002°)
1.12201845430196e+000	(7.48936079078336e+001dB,1.79999103632086e+002°)
1.14815362149688e+000	(7.48936079024270e+001dB,1.79999082753026e+002°)
1.17489755493952e+000	(7.48936078967735e+001dB,1.79999061387633e+002°)
1.20226443461741e+000	(7.48936078908527e+001dB,1.79999039524578e+002°)
1.23026877081237e+000	(7.48936078846539e+001dB,1.79999017152270e+002°)
1.25892541179416e+000	(7.48936078781486e+001dB,1.79998994258846e+002°)
1.28824955169313e+000	(7.48936078713564e+001dB,1.79998970832169e+002°)
1.31825673855640e+000	(7.48936078642303e+001dB,1.79998946859818e+002°)
1.34896288259165e+000	(7.48936078567750e+001dB,1.79998922329083e+002°)
1.38038426460288e+000	(7.48936078489666e+001dB,1.79998897226957e+002°)
1.41253754462275e+000	(7.48936078407911e+001dB,1.79998871540131e+002°)
1.44543977074592e+000	(7.48936078322269e+001dB,1.79998845254986e+002°)
1.47910838816820e+000	(7.48936078232656e+001dB,1.79998818357586e+002°)
1.51356124843620e+000	(7.48936078138771e+001dB,1.79998790833670e+002°)
1.54881661891247e+000	(7.48936078040446e+001dB,1.79998762668645e+002°)
1.58489319246110e+000	(7.48936077937504e+001dB,1.79998733847577e+002°)
1.62181009735892e+000	(7.48936077829727e+001dB,1.79998704355186e+002°)
1.65958690743755e+000	(7.48936077716884e+001dB,1.79998674175836e+002°)
1.69824365246173e+000	(7.48936077598706e+001dB,1.79998643293525e+002°)
1.73780082874936e+000	(7.48936077474909e+001dB,1.79998611691879e+002°)
1.77827941003891e+000	(7.48936077345307e+001dB,1.79998579354145e+002°)
1.81970085860997e+000	(7.48936077209632e+001dB,1.79998546263176e+002°)
1.86208713666286e+000	(7.48936077067570e+001dB,1.79998512401429e+002°)
1.90546071796323e+000	(7.48936076918763e+001dB,1.79998477750949e+002°)
1.94984459975803e+000	(7.48936076763013e+001dB,1.79998442293367e+002°)
1.99526231496887e+000	(7.48936076599867e+001dB,1.79998406009882e+002°)
2.04173794466952e+000	(7.48936076428995e+001dB,1.79998368881258e+002°)
2.08929613085403e+000	(7.48936076250128e+001dB,1.79998330887810e+002°)
2.13796208950222e+000	(7.48936076062804e+001dB,1.79998292009394e+002°)
2.18776162394954e+000	(7.48936075866653e+001dB,1.79998252225398e+002°)
2.23872113856832e+000	(7.48936075661322e+001dB,1.79998211514729e+002°)
2.29086765276776e+000	(7.48936075446235e+001dB,1.79998169855803e+002°)
2.34422881531990e+000	(7.48936075221073e+001dB,1.79998127226534e+002°)
2.39883291901947e+000	(7.48936074985261e+001dB,1.79998083604320e+002°)
2.45470891568501e+000	(7.48936074738303e+001dB,1.79998038966035e+002°)
2.51188643150956e+000	(7.48936074479793e+001dB,1.79997993288013e+002°)
2.57039578276884e+000	(7.48936074209057e+001dB,1.79997946546036e+002°)
2.63026799189536e+000	(7.48936073925575e+001dB,1.79997898715324e+002°)
2.69153480392690e+000	(7.48936073628662e+001dB,1.79997849770518e+002°)
2.75422870333815e+000	(7.48936073317823e+001dB,1.79997799685670e+002°)
2.81838293126443e+000	(7.48936072992289e+001dB,1.79997748434227e+002°)
2.88403150312658e+000	(7.48936072651477e+001dB,1.79997695989018e+002°)
2.95120922666636e+000	(7.48936072294565e+001dB,1.79997642322237e+002°)
3.01995172040199e+000	(7.48936071920844e+001dB,1.79997587405435e+002°)
3.09029543251357e+000	(7.48936071529469e+001dB,1.79997531209497e+002°)
3.16227766016835e+000	(7.48936071119737e+001dB,1.79997473704631e+002°)
3.23593656929626e+000	(7.48936070690635e+001dB,1.79997414860351e+002°)
3.31131121482589e+000	(7.48936070241322e+001dB,1.79997354645461e+002°)
3.38844156139200e+000	(7.48936069770853e+001dB,1.79997293028040e+002°)
3.46736850452529e+000	(7.48936069278175e+001dB,1.79997229975423e+002°)
3.54813389233573e+000	(7.48936068762264e+001dB,1.79997165454182e+002°)
3.63078054770098e+000	(7.48936068222055e+001dB,1.79997099430115e+002°)
3.71535229097170e+000	(7.48936067656404e+001dB,1.79997031868221e+002°)
3.80189396320558e+000	(7.48936067064053e+001dB,1.79996962732683e+002°)
3.89045144994278e+000	(7.48936066443833e+001dB,1.79996891986852e+002°)
3.98107170553494e+000	(7.48936065794354e+001dB,1.79996819593227e+002°)
4.07380277804109e+000	(7.48936065114310e+001dB,1.79996745513430e+002°)
4.16869383470332e+000	(7.48936064402237e+001dB,1.79996669708193e+002°)
4.26579518801589e+000	(7.48936063656543e+001dB,1.79996592137332e+002°)
4.36515832240162e+000	(7.48936062875752e+001dB,1.79996512759727e+002°)
4.46683592150959e+000	(7.48936062058113e+001dB,1.79996431533304e+002°)
4.57088189614871e+000	(7.48936061201985e+001dB,1.79996348415005e+002°)
4.67735141287194e+000	(7.48936060305449e+001dB,1.79996263360774e+002°)
4.78630092322634e+000	(7.48936059366756e+001dB,1.79996176325525e+002°)
4.89778819368442e+000	(7.48936058383769e+001dB,1.79996087263127e+002°)
5.01187233627268e+000	(7.48936057354445e+001dB,1.79995996126372e+002°)
5.12861383991361e+000	(7.48936056276624e+001dB,1.79995902866956e+002°)
5.24807460249768e+000	(7.48936055147988e+001dB,1.79995807435447e+002°)
5.37031796370248e+000	(7.48936053966198e+001dB,1.79995709781266e+002°)
5.49540873857620e+000	(7.48936052728681e+001dB,1.79995609852655e+002°)
5.62341325190344e+000	(7.48936051432868e+001dB,1.79995507596652e+002°)
5.75439937337152e+000	(7.48936050076015e+001dB,1.79995402959064e+002°)
